name,type,start_time,duration,"mosi","miso"
"SPI","error",0.676719,1.8375e-05,,
"SPI","enable",0.690137875,1.25e-07,,
"SPI","result",0.69015625,2.9875e-05,0x01,0x00
"SPI","disable",0.6901945,1.25e-07,,
"SPI","enable",0.810102375,1.25e-07,,
"SPI","result",0.810107,2.9125e-05,0xFF,0x00
"SPI","disable",0.8101415,1.25e-07,,
"SPI","enable",0.810144375,1.25e-07,,
"SPI","result",0.810148875,2.925e-05,0x77,0x00
"SPI","disable",0.810183375,1.25e-07,,
"SPI","enable",0.81018575,1.25e-07,,
"SPI","result",0.81019025,2.9e-05,0x01,0x00
"SPI","disable",0.810224625,1.25e-07,,
"SPI","enable",0.8102265,1.25e-07,,
"SPI","result",0.810231,2.9125e-05,0x00,0x00
"SPI","disable",0.810265375,1.25e-07,,
"SPI","enable",0.81026725,1.25e-07,,
"SPI","result",0.81027175,2.9125e-05,0x00,0x00
"SPI","disable",0.810306125,1.25e-07,,
"SPI","enable",0.810308,1.25e-07,,
"SPI","result",0.8103125,2.9125e-05,0x00,0x00
"SPI","disable",0.810346875,1.25e-07,,
"SPI","enable",0.81035,1.25e-07,,
"SPI","result",0.8103545,2.925e-05,0x36,0x00
"SPI","disable",0.810389,1.25e-07,,
"SPI","enable",0.810390875,1.25e-07,,
"SPI","result",0.810395375,2.9125e-05,0x08,0x00
"SPI","disable",0.81042975,1.25e-07,,
"SPI","enable",0.810433375,1.25e-07,,
"SPI","result",0.810437875,2.9125e-05,0x3A,0x00
"SPI","disable",0.81047225,1.25e-07,,
"SPI","enable",0.810474125,1.25e-07,,
"SPI","result",0.810478625,2.9125e-05,0x50,0x00
"SPI","disable",0.810513125,1.25e-07,,
"SPI","enable",0.8105195,1.25e-07,,
"SPI","result",0.810524,2.925e-05,0xFF,0x00
"SPI","disable",0.8105585,1.25e-07,,
"SPI","enable",0.810560375,1.25e-07,,
"SPI","result",0.810564875,2.9375e-05,0x77,0x00
"SPI","disable",0.810599625,1.25e-07,,
"SPI","enable",0.8106015,1.25e-07,,
"SPI","result",0.810605875,2.9125e-05,0x01,0x00
"SPI","disable",0.810640375,1.25e-07,,
"SPI","enable",0.81064225,1.25e-07,,
"SPI","result",0.81064675,2.9e-05,0x00,0x00
"SPI","disable",0.810681125,1.25e-07,,
"SPI","enable",0.810683,1.25e-07,,
"SPI","result",0.8106875,2.9125e-05,0x00,0x00
"SPI","disable",0.810721875,1.25e-07,,
"SPI","enable",0.81072375,1.25e-07,,
"SPI","result",0.81072825,2.9125e-05,0x10,0x00
"SPI","disable",0.810762625,1.25e-07,,
"SPI","enable",0.810775625,1.25e-07,,
"SPI","result",0.810780125,2.9125e-05,0xC0,0x00
"SPI","disable",0.810814625,1.25e-07,,
"SPI","enable",0.8108165,1.25e-07,,
"SPI","result",0.810821,2.9125e-05,0x3B,0x00
"SPI","disable",0.810855375,1.25e-07,,
"SPI","enable",0.81085725,1.25e-07,,
"SPI","result",0.81086175,2.9125e-05,0x00,0x00
"SPI","disable",0.810896125,1.25e-07,,
"SPI","enable",0.81090575,1.25e-07,,
"SPI","result",0.81091025,2.9125e-05,0xC1,0x00
"SPI","disable",0.81094475,1.25e-07,,
"SPI","enable",0.810946625,1.25e-07,,
"SPI","result",0.810951125,2.9125e-05,0x0D,0x00
"SPI","disable",0.8109855,1.25e-07,,
"SPI","enable",0.810987375,1.25e-07,,
"SPI","result",0.810991875,2.9125e-05,0x02,0x00
"SPI","disable",0.811026375,1.25e-07,,
"SPI","enable",0.81103525,1.25e-07,,
"SPI","result",0.81103975,2.9125e-05,0xC2,0x00
"SPI","disable",0.81107425,1.25e-07,,
"SPI","enable",0.811076,1.25e-07,,
"SPI","result",0.8110805,3.7125e-05,0x31,0x00
"SPI","disable",0.811123,1.25e-07,,
"SPI","enable",0.811125,1.25e-07,,
"SPI","result",0.811129375,2.925e-05,0x05,0x00
"SPI","disable",0.811163875,1.25e-07,,
"SPI","enable",0.811173625,1.25e-07,,
"SPI","result",0.811178125,2.9125e-05,0xCD,0x00
"SPI","disable",0.811212625,1.25e-07,,
"SPI","enable",0.8112145,1.25e-07,,
"SPI","result",0.811219,2.9e-05,0x00,0x00
"SPI","disable",0.811253375,1.25e-07,,
"SPI","enable",0.81126225,1.25e-07,,
"SPI","result",0.81126675,2.9125e-05,0xB0,0x00
"SPI","disable",0.81130125,1.25e-07,,
"SPI","enable",0.811303125,1.25e-07,,
"SPI","result",0.811307625,2.9125e-05,0x00,0x00
"SPI","disable",0.811342,1.25e-07,,
"SPI","enable",0.811343875,1.25e-07,,
"SPI","result",0.811348375,2.9125e-05,0x11,0x00
"SPI","disable",0.81138275,1.25e-07,,
"SPI","enable",0.811384625,1.25e-07,,
"SPI","result",0.811389125,2.9125e-05,0x18,0x00
"SPI","disable",0.811423625,1.25e-07,,
"SPI","enable",0.8114255,1.25e-07,,
"SPI","result",0.81143,2.9125e-05,0x0E,0x00
"SPI","disable",0.811464375,1.25e-07,,
"SPI","enable",0.81146625,1.25e-07,,
"SPI","result",0.81147075,2.9125e-05,0x11,0x00
"SPI","disable",0.81150525,1.25e-07,,
"SPI","enable",0.811507,1.25e-07,,
"SPI","result",0.8115115,2.9125e-05,0x06,0x00
"SPI","disable",0.811546,1.25e-07,,
"SPI","enable",0.811547875,1.25e-07,,
"SPI","result",0.811552375,2.9125e-05,0x07,0x00
"SPI","disable",0.81158675,1.25e-07,,
"SPI","enable",0.811588625,1.25e-07,,
"SPI","result",0.81159325,2.9125e-05,0x08,0x00
"SPI","disable",0.811627625,1.25e-07,,
"SPI","enable",0.8116295,1.25e-07,,
"SPI","result",0.811634,2.9125e-05,0x07,0x00
"SPI","disable",0.811668375,1.25e-07,,
"SPI","enable",0.81167025,1.25e-07,,
"SPI","result",0.81167475,2.9125e-05,0x22,0x00
"SPI","disable",0.81170925,1.25e-07,,
"SPI","enable",0.811711125,1.25e-07,,
"SPI","result",0.811715625,2.9125e-05,0x04,0x00
"SPI","disable",0.81175,1.25e-07,,
"SPI","enable",0.811751875,1.25e-07,,
"SPI","result",0.811756375,2.9125e-05,0x12,0x00
"SPI","disable",0.81179075,1.25e-07,,
"SPI","enable",0.811792625,1.25e-07,,
"SPI","result",0.811797125,2.9125e-05,0x0F,0x00
"SPI","disable",0.811831625,1.25e-07,,
"SPI","enable",0.8118335,1.25e-07,,
"SPI","result",0.811838,2.9125e-05,0xAA,0x00
"SPI","disable",0.811872375,1.25e-07,,
"SPI","enable",0.81187425,1.25e-07,,
"SPI","result",0.81187875,2.9125e-05,0x31,0x00
"SPI","disable",0.81191325,1.25e-07,,
"SPI","enable",0.811915125,1.25e-07,,
"SPI","result",0.811919625,2.9125e-05,0x18,0x00
"SPI","disable",0.811954,1.25e-07,,
"SPI","enable",0.811963625,1.25e-07,,
"SPI","result",0.811968125,2.9125e-05,0xB1,0x00
"SPI","disable",0.812002625,1.25e-07,,
"SPI","enable",0.8120045,1.25e-07,,
"SPI","result",0.812009,2.9125e-05,0x00,0x00
"SPI","disable",0.812043375,1.25e-07,,
"SPI","enable",0.81204525,1.25e-07,,
"SPI","result",0.81204975,2.9125e-05,0x11,0x00
"SPI","disable",0.812091,1.25e-07,,
"SPI","enable",0.812093,1.25e-07,,
"SPI","result",0.8120975,2.9125e-05,0x19,0x00
"SPI","disable",0.812131875,1.25e-07,,
"SPI","enable",0.81213375,1.25e-07,,
"SPI","result",0.81213825,2.9125e-05,0x0E,0x00
"SPI","disable",0.81217275,1.25e-07,,
"SPI","enable",0.812174625,1.25e-07,,
"SPI","result",0.812179125,2.9125e-05,0x12,0x00
"SPI","disable",0.8122135,1.25e-07,,
"SPI","enable",0.812215375,1.25e-07,,
"SPI","result",0.812219875,2.9125e-05,0x07,0x00
"SPI","disable",0.812254375,1.25e-07,,
"SPI","enable",0.81225625,1.25e-07,,
"SPI","result",0.812260625,2.9125e-05,0x08,0x00
"SPI","disable",0.812295125,1.25e-07,,
"SPI","enable",0.812297,1.25e-07,,
"SPI","result",0.8123015,2.9125e-05,0x08,0x00
"SPI","disable",0.812335875,1.25e-07,,
"SPI","enable",0.81233775,1.25e-07,,
"SPI","result",0.81234225,2.9125e-05,0x08,0x00
"SPI","disable",0.812376625,1.25e-07,,
"SPI","enable",0.8123785,1.25e-07,,
"SPI","result",0.812383,2.9125e-05,0x22,0x00
"SPI","disable",0.8124175,1.25e-07,,
"SPI","enable",0.812419375,1.25e-07,,
"SPI","result",0.81242375,2.9125e-05,0x04,0x00
"SPI","disable",0.81245825,1.25e-07,,
"SPI","enable",0.812460125,1.25e-07,,
"SPI","result",0.812464625,2.9125e-05,0x11,0x00
"SPI","disable",0.812499,1.25e-07,,
"SPI","enable",0.812500875,1.25e-07,,
"SPI","result",0.812505375,2.9125e-05,0x11,0x00
"SPI","disable",0.812539875,1.25e-07,,
"SPI","enable",0.812541625,1.25e-07,,
"SPI","result",0.812546125,2.925e-05,0xA9,0x00
"SPI","disable",0.812580625,1.25e-07,,
"SPI","enable",0.8125825,1.25e-07,,
"SPI","result",0.812587,2.925e-05,0x32,0x00
"SPI","disable",0.812621625,1.25e-07,,
"SPI","enable",0.8126235,1.25e-07,,
"SPI","result",0.812628,2.9125e-05,0x18,0x00
"SPI","disable",0.812662375,1.25e-07,,
"SPI","enable",0.8126715,1.25e-07,,
"SPI","result",0.812676,2.9125e-05,0xFF,0x00
"SPI","disable",0.8127105,1.25e-07,,
"SPI","enable",0.812712375,1.25e-07,,
"SPI","result",0.812716875,2.9125e-05,0x77,0x00
"SPI","disable",0.81275125,1.25e-07,,
"SPI","enable",0.812753125,1.25e-07,,
"SPI","result",0.812757625,2.9125e-05,0x01,0x00
"SPI","disable",0.812792125,1.25e-07,,
"SPI","enable",0.812794,1.25e-07,,
"SPI","result",0.812798375,2.9125e-05,0x00,0x00
"SPI","disable",0.812832875,1.25e-07,,
"SPI","enable",0.81283475,1.25e-07,,
"SPI","result",0.81283925,2.9e-05,0x00,0x00
"SPI","disable",0.812873625,1.25e-07,,
"SPI","enable",0.8128755,1.25e-07,,
"SPI","result",0.81288,2.9125e-05,0x11,0x00
"SPI","disable",0.812914375,1.25e-07,,
"SPI","enable",0.812924125,1.25e-07,,
"SPI","result",0.8129285,2.925e-05,0xB0,0x00
"SPI","disable",0.812963,1.25e-07,,
"SPI","enable",0.812964875,1.25e-07,,
"SPI","result",0.812969375,2.9125e-05,0x60,0x00
"SPI","disable",0.81300375,1.25e-07,,
"SPI","enable",0.81301275,1.25e-07,,
"SPI","result",0.81301725,2.9125e-05,0xB1,0x00
"SPI","disable",0.813051625,1.25e-07,,
"SPI","enable",0.8130535,1.25e-07,,
"SPI","result",0.813058,3.7e-05,0x32,0x00
"SPI","disable",0.813100375,1.25e-07,,
"SPI","enable",0.813110125,1.25e-07,,
"SPI","result",0.813114625,2.9125e-05,0xB2,0x00
"SPI","disable",0.813149125,1.25e-07,,
"SPI","enable",0.813151,1.25e-07,,
"SPI","result",0.8131555,2.9125e-05,0x07,0x00
"SPI","disable",0.813189875,1.25e-07,,
"SPI","enable",0.813198875,1.25e-07,,
"SPI","result",0.813203375,2.9125e-05,0xB3,0x00
"SPI","disable",0.81323775,1.25e-07,,
"SPI","enable",0.813239625,1.25e-07,,
"SPI","result",0.813244125,2.9125e-05,0x80,0x00
"SPI","disable",0.813278625,1.25e-07,,
"SPI","enable",0.81328825,1.25e-07,,
"SPI","result",0.81329275,2.9125e-05,0xB5,0x00
"SPI","disable",0.813327125,1.25e-07,,
"SPI","enable",0.813329,1.25e-07,,
"SPI","result",0.8133335,2.9125e-05,0x49,0x00
"SPI","disable",0.813368,1.25e-07,,
"SPI","enable",0.813376875,1.25e-07,,
"SPI","result",0.813381375,2.925e-05,0xB7,0x00
"SPI","disable",0.813415875,1.25e-07,,
"SPI","enable",0.81341775,1.25e-07,,
"SPI","result",0.81342225,2.9125e-05,0x85,0x00
"SPI","disable",0.813456625,1.25e-07,,
"SPI","enable",0.81346625,1.25e-07,,
"SPI","result",0.81347075,2.925e-05,0xB8,0x00
"SPI","disable",0.81350525,1.25e-07,,
"SPI","enable",0.813507125,1.25e-07,,
"SPI","result",0.813511625,2.9125e-05,0x21,0x00
"SPI","disable",0.813546,1.25e-07,,
"SPI","enable",0.813555,1.25e-07,,
"SPI","result",0.8135595,2.9125e-05,0xC1,0x00
"SPI","disable",0.813594125,1.25e-07,,
"SPI","enable",0.813596,1.25e-07,,
"SPI","result",0.8136005,2.9125e-05,0x78,0x00
"SPI","disable",0.813635,1.25e-07,,
"SPI","enable",0.813644625,1.25e-07,,
"SPI","result",0.813649,2.925e-05,0xC2,0x00
"SPI","disable",0.8136835,1.25e-07,,
"SPI","enable",0.813685375,1.25e-07,,
"SPI","result",0.813689875,2.9125e-05,0x78,0x00
"SPI","disable",0.813724375,1.25e-07,,
"SPI","enable",0.81373325,1.25e-07,,
"SPI","result",0.81373775,2.9125e-05,0xE0,0x00
"SPI","disable",0.81377225,1.25e-07,,
"SPI","enable",0.813774,1.25e-07,,
"SPI","result",0.8137785,2.9125e-05,0x00,0x00
"SPI","disable",0.813813,1.25e-07,,
"SPI","enable",0.813814875,1.25e-07,,
"SPI","result",0.813819375,2.9125e-05,0x1B,0x00
"SPI","disable",0.81385375,1.25e-07,,
"SPI","enable",0.813855625,1.25e-07,,
"SPI","result",0.813860125,2.9125e-05,0x02,0x00
"SPI","disable",0.8138945,1.25e-07,,
"SPI","enable",0.813904125,1.25e-07,,
"SPI","result",0.813908625,2.925e-05,0xE1,0x00
"SPI","disable",0.813943125,1.25e-07,,
"SPI","enable",0.813945,1.25e-07,,
"SPI","result",0.8139495,2.9125e-05,0x08,0x00
"SPI","disable",0.813983875,1.25e-07,,
"SPI","enable",0.81398575,1.25e-07,,
"SPI","result",0.81399025,2.9125e-05,0xA0,0x00
"SPI","disable",0.81402475,1.25e-07,,
"SPI","enable",0.814026625,1.25e-07,,
"SPI","result",0.814031125,2.9e-05,0x00,0x00
"SPI","disable",0.8140655,1.25e-07,,
"SPI","enable",0.814067375,1.25e-07,,
"SPI","result",0.814071875,3.6875e-05,0x00,0x00
"SPI","disable",0.814114125,1.25e-07,,
"SPI","enable",0.814116,1.25e-07,,
"SPI","result",0.8141205,2.9125e-05,0x07,0x00
"SPI","disable",0.814155,1.25e-07,,
"SPI","enable",0.814156875,1.25e-07,,
"SPI","result",0.814161375,2.9125e-05,0xA0,0x00
"SPI","disable",0.81419575,1.25e-07,,
"SPI","enable",0.814197625,1.25e-07,,
"SPI","result",0.814202125,2.9125e-05,0x00,0x00
"SPI","disable",0.8142365,1.25e-07,,
"SPI","enable",0.814238375,1.25e-07,,
"SPI","result",0.814242875,2.9125e-05,0x00,0x00
"SPI","disable",0.81427725,1.25e-07,,
"SPI","enable",0.814279125,1.25e-07,,
"SPI","result",0.814283625,2.9125e-05,0x00,0x00
"SPI","disable",0.814318125,1.25e-07,,
"SPI","enable",0.814319875,1.25e-07,,
"SPI","result",0.814324375,2.9125e-05,0x44,0x00
"SPI","disable",0.814358875,1.25e-07,,
"SPI","enable",0.81436075,1.25e-07,,
"SPI","result",0.81436525,2.9125e-05,0x44,0x00
"SPI","disable",0.814399625,1.25e-07,,
"SPI","enable",0.81440875,1.25e-07,,
"SPI","result",0.81441325,2.9125e-05,0xE2,0x00
"SPI","disable",0.814447625,1.25e-07,,
"SPI","enable",0.8144495,1.25e-07,,
"SPI","result",0.814454,2.9125e-05,0x11,0x00
"SPI","disable",0.8144885,1.25e-07,,
"SPI","enable",0.814490375,1.25e-07,,
"SPI","result",0.814494875,2.9125e-05,0x11,0x00
"SPI","disable",0.81452925,1.25e-07,,
"SPI","enable",0.814531125,1.25e-07,,
"SPI","result",0.814535625,2.9125e-05,0x44,0x00
"SPI","disable",0.814570125,1.25e-07,,
"SPI","enable",0.814571875,1.25e-07,,
"SPI","result",0.814576375,2.9375e-05,0x44,0x00
"SPI","disable",0.814611125,1.25e-07,,
"SPI","enable",0.814612875,1.25e-07,,
"SPI","result",0.814617375,2.925e-05,0xED,0x00
"SPI","disable",0.814651875,1.25e-07,,
"SPI","enable",0.81465375,1.25e-07,,
"SPI","result",0.81465825,2.9125e-05,0xA0,0x00
"SPI","disable",0.81469275,1.25e-07,,
"SPI","enable",0.814694625,1.25e-07,,
"SPI","result",0.814699,2.9125e-05,0x00,0x00
"SPI","disable",0.8147335,1.25e-07,,
"SPI","enable",0.814735375,1.25e-07,,
"SPI","result",0.814739875,2.9e-05,0x00,0x00
"SPI","disable",0.81477425,1.25e-07,,
"SPI","enable",0.814776125,1.25e-07,,
"SPI","result",0.814780625,2.9125e-05,0xEC,0x00
"SPI","disable",0.814815125,1.25e-07,,
"SPI","enable",0.814816875,1.25e-07,,
"SPI","result",0.814821375,2.9125e-05,0xA0,0x00
"SPI","disable",0.814855875,1.25e-07,,
"SPI","enable",0.81485775,1.25e-07,,
"SPI","result",0.81486225,2.9e-05,0x00,0x00
"SPI","disable",0.814896625,1.25e-07,,
"SPI","enable",0.8148985,1.25e-07,,
"SPI","result",0.814903,2.9125e-05,0x00,0x00
"SPI","disable",0.814937375,1.25e-07,,
"SPI","enable",0.814947,1.25e-07,,
"SPI","result",0.8149515,2.9125e-05,0xE3,0x00
"SPI","disable",0.814986,1.25e-07,,
"SPI","enable",0.814987875,1.25e-07,,
"SPI","result",0.814992375,2.9e-05,0x00,0x00
"SPI","disable",0.81502675,1.25e-07,,
"SPI","enable",0.815028625,1.25e-07,,
"SPI","result",0.815033125,2.9125e-05,0x00,0x00
"SPI","disable",0.8150675,1.25e-07,,
"SPI","enable",0.815069375,1.25e-07,,
"SPI","result",0.815073875,3.7e-05,0x11,0x00
"SPI","disable",0.815116375,1.25e-07,,
"SPI","enable",0.81511825,1.25e-07,,
"SPI","result",0.81512275,2.9125e-05,0x11,0x00
"SPI","disable",0.815157125,1.25e-07,,
"SPI","enable",0.81516625,1.25e-07,,
"SPI","result",0.81517075,2.9125e-05,0xE4,0x00
"SPI","disable",0.81520525,1.25e-07,,
"SPI","enable",0.815207,1.25e-07,,
"SPI","result",0.8152115,2.9125e-05,0x44,0x00
"SPI","disable",0.815246,1.25e-07,,
"SPI","enable",0.815247875,1.25e-07,,
"SPI","result",0.815252375,2.9125e-05,0x44,0x00
"SPI","disable",0.81528675,1.25e-07,,
"SPI","enable",0.815296375,1.25e-07,,
"SPI","result",0.815300875,2.9125e-05,0xE5,0x00
"SPI","disable",0.815335375,1.25e-07,,
"SPI","enable",0.81533725,1.25e-07,,
"SPI","result",0.81534175,2.9125e-05,0x0A,0x00
"SPI","disable",0.815376125,1.25e-07,,
"SPI","enable",0.815378,1.25e-07,,
"SPI","result",0.8153825,2.9125e-05,0xE9,0x00
"SPI","disable",0.815417,1.25e-07,,
"SPI","enable",0.815418875,1.25e-07,,
"SPI","result",0.815423375,2.9125e-05,0xD8,0x00
"SPI","disable",0.815457875,1.25e-07,,
"SPI","enable",0.815459625,1.25e-07,,
"SPI","result",0.815464125,2.9125e-05,0xA0,0x00
"SPI","disable",0.815498625,1.25e-07,,
"SPI","enable",0.8155005,1.25e-07,,
"SPI","result",0.815505,2.9125e-05,0x0C,0x00
"SPI","disable",0.815539375,1.25e-07,,
"SPI","enable",0.81554125,1.25e-07,,
"SPI","result",0.81554575,2.9125e-05,0xEB,0x00
"SPI","disable",0.81558025,1.25e-07,,
"SPI","enable",0.815582125,1.25e-07,,
"SPI","result",0.815586625,2.925e-05,0xD8,0x00
"SPI","disable",0.81562125,1.25e-07,,
"SPI","enable",0.815623125,1.25e-07,,
"SPI","result",0.815627625,2.9125e-05,0xA0,0x00
"SPI","disable",0.815662,1.25e-07,,
"SPI","enable",0.815663875,1.25e-07,,
"SPI","result",0.815668375,2.9125e-05,0x0E,0x00
"SPI","disable",0.815702875,1.25e-07,,
"SPI","enable",0.81570475,1.25e-07,,
"SPI","result",0.815709125,2.925e-05,0xED,0x00
"SPI","disable",0.815743625,1.25e-07,,
"SPI","enable",0.8157455,1.25e-07,,
"SPI","result",0.81575,2.9125e-05,0xD8,0x00
"SPI","disable",0.8157845,1.25e-07,,
"SPI","enable",0.815786375,1.25e-07,,
"SPI","result",0.815790875,2.9125e-05,0xA0,0x00
"SPI","disable",0.81582525,1.25e-07,,
"SPI","enable",0.815827125,1.25e-07,,
"SPI","result",0.815831625,2.9125e-05,0x10,0x00
"SPI","disable",0.815866,1.25e-07,,
"SPI","enable",0.815867875,1.25e-07,,
"SPI","result",0.815872375,2.925e-05,0xEF,0x00
"SPI","disable",0.815906875,1.25e-07,,
"SPI","enable",0.81590875,1.25e-07,,
"SPI","result",0.81591325,2.9125e-05,0xD8,0x00
"SPI","disable",0.81594775,1.25e-07,,
"SPI","enable",0.815949625,1.25e-07,,
"SPI","result",0.815954125,2.9125e-05,0xA0,0x00
"SPI","disable",0.8159885,1.25e-07,,
"SPI","enable",0.8159975,1.25e-07,,
"SPI","result",0.816002,2.9125e-05,0xE6,0x00
"SPI","disable",0.816036375,1.25e-07,,
"SPI","enable",0.81603825,1.25e-07,,
"SPI","result",0.81604275,2.9125e-05,0x00,0x00
"SPI","disable",0.816077125,1.25e-07,,
"SPI","enable",0.816079,1.25e-07,,
"SPI","result",0.81609125,2.9125e-05,0x00,0x00
"SPI","disable",0.816125875,1.25e-07,,
"SPI","enable",0.81612775,1.25e-07,,
"SPI","result",0.81613225,2.9125e-05,0x11,0x00
"SPI","disable",0.816166625,1.25e-07,,
"SPI","enable",0.8161685,1.25e-07,,
"SPI","result",0.816173,2.9125e-05,0x11,0x00
"SPI","disable",0.8162075,1.25e-07,,
"SPI","enable",0.81621725,1.25e-07,,
"SPI","result",0.81622175,2.9125e-05,0xE7,0x00
"SPI","disable",0.81625625,1.25e-07,,
"SPI","enable",0.816258,1.25e-07,,
"SPI","result",0.8162625,2.9125e-05,0x44,0x00
"SPI","disable",0.816297,1.25e-07,,
"SPI","enable",0.816298875,1.25e-07,,
"SPI","result",0.816303375,2.9125e-05,0x44,0x00
"SPI","disable",0.81633775,1.25e-07,,
"SPI","enable",0.81634675,1.25e-07,,
"SPI","result",0.81635125,2.9125e-05,0xE8,0x00
"SPI","disable",0.816385625,1.25e-07,,
"SPI","enable",0.8163875,1.25e-07,,
"SPI","result",0.816392,2.9125e-05,0x09,0x00
"SPI","disable",0.8164265,1.25e-07,,
"SPI","enable",0.816428375,1.25e-07,,
"SPI","result",0.81643275,2.925e-05,0xE8,0x00
"SPI","disable",0.81646725,1.25e-07,,
"SPI","enable",0.816469125,1.25e-07,,
"SPI","result",0.816473625,2.9125e-05,0xD8,0x00
"SPI","disable",0.816508125,1.25e-07,,
"SPI","enable",0.81651,1.25e-07,,
"SPI","result",0.8165145,2.9125e-05,0xA0,0x00
"SPI","disable",0.816548875,1.25e-07,,
"SPI","enable",0.81655075,1.25e-07,,
"SPI","result",0.81655525,2.9125e-05,0x0B,0x00
"SPI","disable",0.81658975,1.25e-07,,
"SPI","enable",0.816591625,1.25e-07,,
"SPI","result",0.816596375,2.925e-05,0xEA,0x00
"SPI","disable",0.816630875,1.25e-07,,
"SPI","enable",0.81663275,1.25e-07,,
"SPI","result",0.81663725,2.9125e-05,0xD8,0x00
"SPI","disable",0.81667175,1.25e-07,,
"SPI","enable",0.816673625,1.25e-07,,
"SPI","result",0.816678125,2.9125e-05,0xA0,0x00
"SPI","disable",0.8167125,1.25e-07,,
"SPI","enable",0.816714375,1.25e-07,,
"SPI","result",0.816718875,2.9125e-05,0x0D,0x00
"SPI","disable",0.816753375,1.25e-07,,
"SPI","enable",0.816755125,1.25e-07,,
"SPI","result",0.816759625,2.925e-05,0xEC,0x00
"SPI","disable",0.816794125,1.25e-07,,
"SPI","enable",0.816796,1.25e-07,,
"SPI","result",0.8168005,2.9125e-05,0xD8,0x00
"SPI","disable",0.816835,1.25e-07,,
"SPI","enable",0.816836875,1.25e-07,,
"SPI","result",0.816841375,2.9125e-05,0xA0,0x00
"SPI","disable",0.81687575,1.25e-07,,
"SPI","enable",0.816877625,1.25e-07,,
"SPI","result",0.816882125,2.9125e-05,0x0F,0x00
"SPI","disable",0.816916625,1.25e-07,,
"SPI","enable",0.8169185,1.25e-07,,
"SPI","result",0.816922875,2.925e-05,0xEE,0x00
"SPI","disable",0.816957375,1.25e-07,,
"SPI","enable",0.81695925,1.25e-07,,
