name,type,start_time,duration,mosi,,,,,mosi,,,,,,,mosi
SPI,enable,2024-02-20T06:57:09.476219125+00:00,1.25e-07,,,,,,,,,,,,,
SPI,result,2024-02-20T06:57:09.476220125+00:00,1.5125e-05,0x01,,,,,0x01,0x01,0x01,0x01,0x01,0x01,,0x01
SPI,disable,2024-02-20T06:57:09.476237125+00:00,1.25e-07,,,,,,,,,,,,,
SPI,enable,2024-02-20T06:57:09.590353125+00:00,1.25e-07,,,,,,,,,,,,,
SPI,result,2024-02-20T06:57:09.590354125+00:00,1.5125e-05,0xFF,,,,,0xFF,0xFF,0xFF,0xFF,0xFF,0xFF,,0xFF
SPI,result,2024-02-20T06:57:09.590390750+00:00,1.5125e-05,0x77,,,,,0x77,0x77,0x77,0x77,0x77,0x77,,0x77
SPI,result,2024-02-20T06:57:09.590406750+00:00,1.5125e-05,0x01,,,,,0x01,0x01,0x01,0x01,0x01,0x01,,0x01
SPI,result,2024-02-20T06:57:09.590422750+00:00,1.5125e-05,0x00,,,,,0x00,0x00,0x00,0x00,0x00,0x00,,0x00
SPI,result,2024-02-20T06:57:09.590438750+00:00,1.5125e-05,0x00,,,,,0x00,0x00,0x00,0x00,0x00,0x00,,0x00
SPI,result,2024-02-20T06:57:09.590454750+00:00,1.5125e-05,0x00,,,,,0x00,0x00,0x00,0x00,0x00,0x00,,0x00
SPI,disable,2024-02-20T06:57:09.590471750+00:00,1.25e-07,,,,,,,,,,,,,
SPI,enable,2024-02-20T06:57:09.590496750+00:00,1.25e-07,,,,,,,,,,,,,
SPI,result,2024-02-20T06:57:09.590497750+00:00,1.5125e-05,0x36,,,,,0x36,0x36,0x36,0x36,0x36,0x36,,0x36
SPI,result,2024-02-20T06:57:09.590530625+00:00,1.5125e-05,0x00,,,,,0x08,0x08,0x08,0x08,0x08,0x08,,0x08
SPI,disable,2024-02-20T06:57:09.590547625+00:00,1.25e-07,,,,,,,,,,,,,
SPI,enable,2024-02-20T06:57:09.590572875+00:00,1.25e-07,,,,,,,,,,,,,
SPI,result,2024-02-20T06:57:09.590573875+00:00,1.5125e-05,0x3A,,,,,0x3A,0x3A,0x3A,0x3A,0x3A,0x3A,,0x3A
SPI,result,2024-02-20T06:57:09.590606750+00:00,1.5125e-05,0x50,,,,,0x50,0x50,0x50,0x50,0x50,0x50,,0x50
SPI,disable,2024-02-20T06:57:09.590623750+00:00,1.25e-07,,,,,,,,,,,,,
SPI,enable,2024-02-20T06:57:09.590652875+00:00,1.25e-07,,,,,,,,,,,,,
SPI,result,2024-02-20T06:57:09.590653875+00:00,1.5125e-05,0xFF,,,,,0xFF,0xFF,0xFF,0xFF,0xFF,0xFF,,0xFF
SPI,result,2024-02-20T06:57:09.590686750+00:00,1.5125e-05,0x77,,,,,0x77,0x77,0x77,0x77,0x77,0x77,,0x77
SPI,result,2024-02-20T06:57:09.590702750+00:00,1.5125e-05,0x01,,,,,0x01,0x01,0x01,0x01,0x01,0x01,,0x01
SPI,result,2024-02-20T06:57:09.590718750+00:00,1.5125e-05,0x00,,,,,0x00,0x00,0x00,0x00,0x00,0x00,,0x00
SPI,result,2024-02-20T06:57:09.590734750+00:00,1.5125e-05,0x00,,,,,0x00,0x00,0x00,0x00,0x00,0x00,,0x00
SPI,result,2024-02-20T06:57:09.590750750+00:00,1.5125e-05,0x10,,,,,0x10,0x10,0x10,0x10,0x10,0x10,,0x10
SPI,disable,2024-02-20T06:57:09.590767875+00:00,1.25e-07,,,,,,,,,,,,,
SPI,enable,2024-02-20T06:57:09.590803375+00:00,1.25e-07,,,,,,,,,,,,,
SPI,result,2024-02-20T06:57:09.590804375+00:00,1.5125e-05,0xC0,,,,,0xC0,0xC0,0xC0,0xC0,0xC0,0xC0,,0xC0
SPI,result,2024-02-20T06:57:09.590837250+00:00,1.5125e-05,0x3B,,,,,0x3B,0x3B,0x3B,0x3B,0x3B,0x3B,,0x3B
SPI,result,2024-02-20T06:57:09.590853250+00:00,1.5125e-05,0x00,,,,,0x00,0x00,0x00,0x00,0x00,0x00,,0x00
SPI,disable,2024-02-20T06:57:09.590870250+00:00,1.25e-07,,,,,,,,,,,,,
SPI,enable,2024-02-20T06:57:09.590902750+00:00,1.25e-07,,,,,,,,,,,,,
SPI,result,2024-02-20T06:57:09.590903750+00:00,1.5125e-05,0xC1,,,,,0xC1,0xC1,0xC1,0xC1,0xC1,0xC1,,0xC1
SPI,result,2024-02-20T06:57:09.590936625+00:00,1.5125e-05,0x0D,,,,,0x0D,0x0D,0x0D,0x0D,0x0D,0x0D,,0x0D
SPI,result,2024-02-20T06:57:09.590952625+00:00,1.5125e-05,0x02,,,,,0x02,0x02,0x02,0x02,0x02,0x02,,0x02
SPI,disable,2024-02-20T06:57:09.590969625+00:00,1.25e-07,,,,,,,,,,,,,
SPI,enable,2024-02-20T06:57:09.591003125+00:00,1.25e-07,,,,,,,,,,,,,
SPI,result,2024-02-20T06:57:09.591004125+00:00,1.5125e-05,0xC2,,,,,0xC2,0xC2,0xC2,0xC2,0xC2,0xC2,,0xC2
SPI,result,2024-02-20T06:57:09.591037000+00:00,1.5125e-05,0x31,,,,,0x31,0x31,0x31,0x31,0x31,0x31,,0x31
SPI,result,2024-02-20T06:57:09.591053000+00:00,1.5125e-05,0x05,,,,,0x05,0x05,0x05,0x05,0x05,0x05,,0x05
SPI,disable,2024-02-20T06:57:09.591070000+00:00,1.25e-07,,,,,,,,,,,,,
SPI,enable,2024-02-20T06:57:09.591102500+00:00,1.25e-07,,,,,,,,,,,,,
SPI,result,2024-02-20T06:57:09.591103500+00:00,1.5125e-05,0xCD,,,,,0xCD,0xCD,0xCD,0xCD,0xCD,0xCD,,0xCD
SPI,result,2024-02-20T06:57:09.591136375+00:00,1.5125e-05,0x00,,,,,0x00,0x00,0x00,0x00,0x00,0x00,,0x00
SPI,disable,2024-02-20T06:57:09.591153375+00:00,1.25e-07,,,,,,,,,,,,,
SPI,enable,2024-02-20T06:57:09.591186875+00:00,1.25e-07,,,,,,,,,,,,,
SPI,result,2024-02-20T06:57:09.591187875+00:00,1.5125e-05,0xB0,,,,,0xB0,0xB0,0xB0,0xB0,0xB0,0xB0,,0xB0
SPI,result,2024-02-20T06:57:09.591221125+00:00,1.525e-05,0x00,,,,,0x00,0x00,0x00,0x00,0x00,0x00,,0x00
SPI,result,2024-02-20T06:57:09.591237250+00:00,1.5125e-05,0x11,,,,,0x11,0x11,0x11,0x11,0x11,0x11,,0x11
SPI,result,2024-02-20T06:57:09.591253250+00:00,1.5125e-05,0x18,,,,,0x18,0x18,0x18,0x18,0x18,0x18,,0x18
SPI,result,2024-02-20T06:57:09.591269250+00:00,1.5125e-05,0x0E,,,,,0x0E,0x0E,0x0E,0x0E,0x0E,0x0E,,0x0E
SPI,result,2024-02-20T06:57:09.591285250+00:00,1.5125e-05,0x11,,,,,0x11,0x11,0x11,0x11,0x11,0x11,,0x11
SPI,result,2024-02-20T06:57:09.591301250+00:00,1.5125e-05,0x06,,,,,0x06,0x06,0x06,0x06,0x06,0x06,,0x06
SPI,result,2024-02-20T06:57:09.591317250+00:00,1.5125e-05,0x07,,,,,0x07,0x07,0x07,0x07,0x07,0x07,,0x07
SPI,result,2024-02-20T06:57:09.591333250+00:00,1.5125e-05,0x08,,,,,0x08,0x08,0x08,0x08,0x08,0x08,,0x08
SPI,result,2024-02-20T06:57:09.591349250+00:00,1.5125e-05,0x07,,,,,0x07,0x07,0x07,0x07,0x07,0x07,,0x07
SPI,result,2024-02-20T06:57:09.591365250+00:00,1.5125e-05,0x22,,,,,0x22,0x22,0x22,0x22,0x22,0x22,,0x22
SPI,result,2024-02-20T06:57:09.591381250+00:00,1.5125e-05,0x04,,,,,0x04,0x04,0x04,0x04,0x04,0x04,,0x04
SPI,result,2024-02-20T06:57:09.591397250+00:00,1.5125e-05,0x12,,,,,0x12,0x12,0x12,0x12,0x12,0x12,,0x12
SPI,result,2024-02-20T06:57:09.591413250+00:00,1.5125e-05,0x0F,,,,,0x0F,0x0F,0x0F,0x0F,0x0F,0x0F,,0x0F
SPI,result,2024-02-20T06:57:09.591429250+00:00,1.5125e-05,0xAA,,,,,0xAA,0xAA,0xAA,0xAA,0xAA,0xAA,,0xAA
SPI,result,2024-02-20T06:57:09.591445250+00:00,1.5125e-05,0x31,,,,,0x31,0x31,0x31,0x31,0x31,0x31,,0x31
SPI,result,2024-02-20T06:57:09.591461250+00:00,1.5125e-05,0x18,,,,,0x18,0x18,0x18,0x18,0x18,0x18,,0x18
SPI,disable,2024-02-20T06:57:09.591478250+00:00,1.25e-07,,,,,,,,,,,,,
SPI,enable,2024-02-20T06:57:09.591510750+00:00,1.25e-07,,,,,,,,,,,,,
SPI,result,2024-02-20T06:57:09.591511750+00:00,1.5125e-05,0xB1,,,,,0xB1,0xB1,0xB1,0xB1,0xB1,0xB1,,0xB1
SPI,result,2024-02-20T06:57:09.591545000+00:00,1.5125e-05,0x00,,,,,0x00,0x00,0x00,0x00,0x00,0x00,,0x00
SPI,result,2024-02-20T06:57:09.591561000+00:00,1.5125e-05,0x11,,,,,0x11,0x11,0x11,0x11,0x11,0x11,,0x11
SPI,result,2024-02-20T06:57:09.591577000+00:00,1.5125e-05,0x19,,,,,0x19,0x19,0x19,0x19,0x19,0x19,,0x19
SPI,result,2024-02-20T06:57:09.591593000+00:00,1.5125e-05,0x0E,,,,,0x0E,0x0E,0x0E,0x0E,0x0E,0x0E,,0x0E
SPI,result,2024-02-20T06:57:09.591609000+00:00,1.5125e-05,0x12,,,,,0x12,0x12,0x12,0x12,0x12,0x12,,0x12
SPI,result,2024-02-20T06:57:09.591625000+00:00,1.5125e-05,0x07,,,,,0x07,0x07,0x07,0x07,0x07,0x07,,0x07
SPI,result,2024-02-20T06:57:09.591641000+00:00,1.5125e-05,0x08,,,,,0x08,0x08,0x08,0x08,0x08,0x08,,0x08
SPI,result,2024-02-20T06:57:09.591657000+00:00,1.5125e-05,0x08,,,,,0x08,0x08,0x08,0x08,0x08,0x08,,0x08
SPI,result,2024-02-20T06:57:09.591673000+00:00,1.5125e-05,0x08,,,,,0x08,0x08,0x08,0x08,0x08,0x08,,0x08
SPI,result,2024-02-20T06:57:09.591689000+00:00,1.5125e-05,0x22,,,,,0x22,0x22,0x22,0x22,0x22,0x22,,0x22
SPI,result,2024-02-20T06:57:09.591705000+00:00,1.5125e-05,0x04,,,,,0x04,0x04,0x04,0x04,0x04,0x04,,0x04
SPI,result,2024-02-20T06:57:09.591721000+00:00,1.5125e-05,0x11,,,,,0x11,0x11,0x11,0x11,0x11,0x11,,0x11
SPI,result,2024-02-20T06:57:09.591737000+00:00,1.5125e-05,0x11,,,,,0x11,0x11,0x11,0x11,0x11,0x11,,0x11
SPI,result,2024-02-20T06:57:09.591753000+00:00,1.5125e-05,0xA9,,,,,0xA9,0xA9,0xA9,0xA9,0xA9,0xA9,,0xA9
SPI,result,2024-02-20T06:57:09.591769000+00:00,1.5125e-05,0x32,,,,,0x32,0x32,0x32,0x32,0x32,0x32,,0x32
SPI,result,2024-02-20T06:57:09.591785000+00:00,1.5125e-05,0x18,,,,,0x18,0x18,0x18,0x18,0x18,0x18,,0x18
SPI,disable,2024-02-20T06:57:09.591802000+00:00,1.25e-07,,,,,,,,,,,,,
SPI,enable,2024-02-20T06:57:09.591835625+00:00,1.25e-07,,,,,,,,,,,,,
SPI,result,2024-02-20T06:57:09.591836625+00:00,1.5125e-05,0xFF,,,,,0xFF,0xFF,0xFF,0xFF,0xFF,0xFF,,0xFF
SPI,result,2024-02-20T06:57:09.591869625+00:00,1.5125e-05,0x77,,,,,0x77,0x77,0x77,0x77,0x77,0x77,,0x77
SPI,result,2024-02-20T06:57:09.591885625+00:00,1.5125e-05,0x01,,,,,0x01,0x01,0x01,0x01,0x01,0x01,,0x01
SPI,result,2024-02-20T06:57:09.591901625+00:00,1.5125e-05,0x00,,,,,0x00,0x00,0x00,0x00,0x00,0x00,,0x00
SPI,result,2024-02-20T06:57:09.591917625+00:00,1.5125e-05,0x00,,,,,0x00,0x00,0x00,0x00,0x00,0x00,,0x00
SPI,result,2024-02-20T06:57:09.591933625+00:00,1.5125e-05,0x11,,,,,0x11,0x11,0x11,0x11,0x11,0x11,,0x11
SPI,disable,2024-02-20T06:57:09.591950625+00:00,1.25e-07,,,,,,,,,,,,,
SPI,enable,2024-02-20T06:57:09.591983125+00:00,1.25e-07,,,,,,,,,,,,,
SPI,result,2024-02-20T06:57:09.591984125+00:00,1.5125e-05,0xB0,,,,,0xB0,0xB0,0xB0,0xB0,0xB0,0xB0,,0xB0
SPI,result,2024-02-20T06:57:09.592017000+00:00,1.5125e-05,0x60,,,,,0x60,0x60,0x60,0x60,0x60,0x60,,0x60
SPI,disable,2024-02-20T06:57:09.592034000+00:00,1.25e-07,,,,,,,,,,,,,
SPI,enable,2024-02-20T06:57:09.592067500+00:00,1.25e-07,,,,,,,,,,,,,
SPI,result,2024-02-20T06:57:09.592068500+00:00,1.5125e-05,0xB1,,,,,0xB1,0xB1,0xB1,0xB1,0xB1,0xB1,,0xB1
SPI,result,2024-02-20T06:57:09.592101375+00:00,1.5125e-05,0x32,,,,,0x32,0x32,0x32,0x32,0x32,0x32,,0x32
SPI,disable,2024-02-20T06:57:09.592118375+00:00,1.25e-07,,,,,,,,,,,,,
SPI,enable,2024-02-20T06:57:09.592150875+00:00,1.25e-07,,,,,,,,,,,,,
SPI,result,2024-02-20T06:57:09.592151875+00:00,1.5125e-05,0xB2,,,,,0xB2,0xB2,0xB2,0xB2,0xB2,0xB2,,0xB2
SPI,result,2024-02-20T06:57:09.592184750+00:00,1.5125e-05,0x07,,,,,0x07,0x07,0x07,0x07,0x07,0x07,,0x07
SPI,disable,2024-02-20T06:57:09.592201750+00:00,1.25e-07,,,,,,,,,,,,,
SPI,enable,2024-02-20T06:57:09.592235250+00:00,1.25e-07,,,,,,,,,,,,,
SPI,result,2024-02-20T06:57:09.592236250+00:00,1.5125e-05,0xB3,,,,,0xB3,0xB3,0xB3,0xB3,0xB3,0xB3,,0xB3
SPI,result,2024-02-20T06:57:09.592269125+00:00,1.5125e-05,0x80,,,,,0x80,0x80,0x80,0x80,0x80,0x80,,0x80
SPI,disable,2024-02-20T06:57:09.592286125+00:00,1.25e-07,,,,,,,,,,,,,
SPI,enable,2024-02-20T06:57:09.592318625+00:00,1.25e-07,,,,,,,,,,,,,
SPI,result,2024-02-20T06:57:09.592319625+00:00,1.525e-05,0xB5,,,,,0xB5,0xB5,0xB5,0xB5,0xB5,0xB5,,0xB5
SPI,result,2024-02-20T06:57:09.592352500+00:00,1.5125e-05,0x49,,,,,0x49,0x49,0x49,0x49,0x49,0x49,,0x49
SPI,disable,2024-02-20T06:57:09.592369500+00:00,1.25e-07,,,,,,,,,,,,,
SPI,enable,2024-02-20T06:57:09.592403125+00:00,1.25e-07,,,,,,,,,,,,,
SPI,result,2024-02-20T06:57:09.592404125+00:00,1.5125e-05,0xB7,,,,,0xB7,0xB7,0xB7,0xB7,0xB7,0xB7,,0xB7
SPI,result,2024-02-20T06:57:09.592437000+00:00,1.5125e-05,0x85,,,,,0x85,0x85,0x85,0x85,0x85,0x85,,0x85
SPI,disable,2024-02-20T06:57:09.592454000+00:00,1.25e-07,,,,,,,,,,,,,
SPI,enable,2024-02-20T06:57:09.592486500+00:00,1.25e-07,,,,,,,,,,,,,
SPI,result,2024-02-20T06:57:09.592487500+00:00,1.5125e-05,0xB8,,,,,0xB8,0xB8,0xB8,0xB8,0xB8,0xB8,,0xB8
SPI,result,2024-02-20T06:57:09.592520375+00:00,1.5125e-05,0x21,,,,,0x21,0x21,0x21,0x21,0x21,0x21,,0x21
SPI,disable,2024-02-20T06:57:09.592537375+00:00,1.25e-07,,,,,,,,,,,,,
SPI,enable,2024-02-20T06:57:09.592570875+00:00,1.25e-07,,,,,,,,,,,,,
SPI,result,2024-02-20T06:57:09.592571875+00:00,1.5125e-05,0xC1,,,,,0xC1,0xC1,0xC1,0xC1,0xC1,0xC1,,0xC1
SPI,result,2024-02-20T06:57:09.592604750+00:00,1.5125e-05,0x78,,,,,0x78,0x78,0x78,0x78,0x78,0x78,,0x78
SPI,disable,2024-02-20T06:57:09.592621750+00:00,1.25e-07,,,,,,,,,,,,,
SPI,enable,2024-02-20T06:57:09.592654250+00:00,1.25e-07,,,,,,,,,,,,,
SPI,result,2024-02-20T06:57:09.592655250+00:00,1.5125e-05,0xC2,,,,,0xC2,0xC2,0xC2,0xC2,0xC2,0xC2,,0xC2
SPI,result,2024-02-20T06:57:09.592688125+00:00,1.5125e-05,0x78,,,,,0x78,0x78,0x78,0x78,0x78,0x78,,0x78
SPI,disable,2024-02-20T06:57:09.592705125+00:00,1.25e-07,,,,,,,,,,,,,
SPI,enable,2024-02-20T06:57:09.592738625+00:00,1.25e-07,,,,,,,,,,,,,
SPI,result,2024-02-20T06:57:09.592739625+00:00,1.5125e-05,0xE0,,,,,0xE0,0xE0,0xE0,0xE0,0xE0,0xE0,,0xE0
SPI,result,2024-02-20T06:57:09.592772500+00:00,1.5125e-05,0x00,,,,,0x00,0x00,0x00,0x00,0x00,0x00,,0x00
SPI,result,2024-02-20T06:57:09.592788500+00:00,1.5125e-05,0x1B,,,,,0x1B,0x1B,0x1B,0x1B,0x1B,0x1B,,0x1B
SPI,result,2024-02-20T06:57:09.592804500+00:00,1.5125e-05,0x02,,,,,0x02,0x02,0x02,0x02,0x02,0x02,,0x02
SPI,disable,2024-02-20T06:57:09.592821500+00:00,1.25e-07,,,,,,,,,,,,,
SPI,enable,2024-02-20T06:57:09.592854000+00:00,1.25e-07,,,,,,,,,,,,,
SPI,result,2024-02-20T06:57:09.592855000+00:00,1.5125e-05,0xE1,,,,,0xE1,0xE1,0xE1,0xE1,0xE1,0xE1,,0xE1
SPI,result,2024-02-20T06:57:09.592888250+00:00,1.5125e-05,0x08,,,,,0x08,0x08,0x08,0x08,0x08,0x08,,0x08
SPI,result,2024-02-20T06:57:09.592904250+00:00,1.5125e-05,0xA0,,,,,0xA0,0xA0,0xA0,0xA0,0xA0,0xA0,,0xA0
SPI,result,2024-02-20T06:57:09.592920250+00:00,1.5125e-05,0x00,,,,,0x00,0x00,0x00,0x00,0x00,0x00,,0x00
SPI,result,2024-02-20T06:57:09.592936250+00:00,1.5125e-05,0x00,,,,,0x00,0x00,0x00,0x00,0x00,0x00,,0x00
SPI,result,2024-02-20T06:57:09.592952250+00:00,1.5125e-05,0x07,,,,,0x07,0x07,0x07,0x07,0x07,0x07,,0x07
SPI,result,2024-02-20T06:57:09.592968250+00:00,1.5125e-05,0xA0,,,,,0xA0,0xA0,0xA0,0xA0,0xA0,0xA0,,0xA0
SPI,result,2024-02-20T06:57:09.592984250+00:00,1.5125e-05,0x00,,,,,0x00,0x00,0x00,0x00,0x00,0x00,,0x00
SPI,result,2024-02-20T06:57:09.593000250+00:00,1.5125e-05,0x00,,,,,0x00,0x00,0x00,0x00,0x00,0x00,,0x00
SPI,result,2024-02-20T06:57:09.593016250+00:00,1.5125e-05,0x00,,,,,0x00,0x00,0x00,0x00,0x00,0x00,,0x00
SPI,result,2024-02-20T06:57:09.593032250+00:00,1.5125e-05,0x44,,,,,0x44,0x44,0x44,0x44,0x44,0x44,,0x44
SPI,result,2024-02-20T06:57:09.593048250+00:00,1.5125e-05,0x44,,,,,0x44,0x44,0x44,0x44,0x44,0x44,,0x44
SPI,disable,2024-02-20T06:57:09.593065250+00:00,1.25e-07,,,,,,,,,,,,,
SPI,enable,2024-02-20T06:57:09.593098750+00:00,1.25e-07,,,,,,,,,,,,,
SPI,result,2024-02-20T06:57:09.593099750+00:00,1.5125e-05,0xE2,,,,,0xE2,0xE2,0xE2,0xE2,0xE2,0xE2,,0xE2
SPI,result,2024-02-20T06:57:09.593132875+00:00,1.5125e-05,0x11,,,,,0x11,0x11,0x11,0x11,0x11,0x11,,0x11
SPI,result,2024-02-20T06:57:09.593148875+00:00,1.5125e-05,0x11,,,,,0x11,0x11,,0x11,0x11,0x11,,0x11
SPI,result,2024-02-20T06:57:09.593164875+00:00,1.5125e-05,0x44,,,,,0x44,0x44,,0x44,0x44,0x44,,0x44
SPI,result,2024-02-20T06:57:09.593180875+00:00,1.5125e-05,0x44,,,,,0x44,0x44,0x44,0x44,0x44,0x44,,0x44
SPI,result,2024-02-20T06:57:09.593196875+00:00,1.5125e-05,0xED,,,,,0xED,0xED,0xED,0xED,0xED,0xED,,0xED
SPI,result,2024-02-20T06:57:09.593212875+00:00,1.5125e-05,0xA0,,,,,0xA0,0xA0,0xA0,0xA0,0xA0,0xA0,,0xA0
SPI,result,2024-02-20T06:57:09.593228875+00:00,1.5125e-05,0x00,,,,,0x00,0x00,0x00,0x00,0x00,0x00,,
SPI,result,2024-02-20T06:57:09.593244875+00:00,1.5125e-05,0x00,,,,,0x00,0x00,0x00,0x00,0x00,0x00,,0x00
SPI,result,2024-02-20T06:57:09.593260875+00:00,1.5125e-05,0xEC,,,,,0xEC,0xEC,0xEC,0xEC,0xEC,0xEC,,0xEC
SPI,result,2024-02-20T06:57:09.593276875+00:00,1.5125e-05,0xA0,,,,,0xA0,,0xA0,0xA0,0xA0,0xA0,,0xA0
SPI,result,2024-02-20T06:57:09.593292875+00:00,1.5125e-05,0x00,,,,,0x00,0x00,0x00,0x00,0x00,0x00,,0x00
SPI,result,2024-02-20T06:57:09.593308875+00:00,1.5125e-05,0x00,,,,,0x00,0x00,0x00,0x00,0x00,0x00,,0x00
SPI,disable,2024-02-20T06:57:09.593326000+00:00,1.25e-07,,,,,,,,,,,,,
SPI,enable,2024-02-20T06:57:09.593358500+00:00,1.25e-07,,,,,,,,,,,,,
SPI,result,2024-02-20T06:57:09.593359500+00:00,1.5125e-05,0xE3,,,,,0xE3,0xE3,0xE3,0xE3,0xE3,0xE3,,0xE3
SPI,result,2024-02-20T06:57:09.593392250+00:00,1.5125e-05,0x00,,,,,0x00,0x00,0x00,0x00,0x00,0x00,,0x00
SPI,result,2024-02-20T06:57:09.593408250+00:00,1.5125e-05,0x00,,,,,0x00,0x00,0x00,0x00,0x00,0x00,,0x00
SPI,result,2024-02-20T06:57:09.593424250+00:00,1.5125e-05,0x11,,,,,0x11,0x11,0x11,0x11,0x11,0x11,,0x11
SPI,result,2024-02-20T06:57:09.593440250+00:00,1.5125e-05,0x11,,,,,0x11,0x11,0x11,0x11,0x11,0x11,,0x11
SPI,disable,2024-02-20T06:57:09.593457375+00:00,1.25e-07,,,,,,,,,,,,,
SPI,enable,2024-02-20T06:57:09.593490875+00:00,1.25e-07,,,,,,,,,,,,,
SPI,result,2024-02-20T06:57:09.593491875+00:00,1.5125e-05,0xE4,,,,,0xE4,0xE4,0xE4,0xE4,0xE4,0xE4,,0xE4
SPI,result,2024-02-20T06:57:09.593524750+00:00,1.5125e-05,0x44,,,,,0x44,0x44,0x44,0x44,0x44,0x44,,0x44
SPI,result,2024-02-20T06:57:09.593540750+00:00,1.5125e-05,0x44,,,,,0x44,0x44,0x44,0x44,0x44,0x44,,0x44
SPI,disable,2024-02-20T06:57:09.593557750+00:00,1.25e-07,,,,,,,,,,,,,
SPI,enable,2024-02-20T06:57:09.593590250+00:00,1.25e-07,,,,,,,,,,,,,
SPI,result,2024-02-20T06:57:09.593591250+00:00,1.5125e-05,0xE5,,,,,0xE5,0xE5,0xE5,0xE5,0xE5,0xE5,,0xE5
SPI,result,2024-02-20T06:57:09.593624500+00:00,1.5125e-05,0x0A,,,,,0x0A,0x0A,0x0A,0x0A,0x0A,0x0A,,0x0A
SPI,result,2024-02-20T06:57:09.593640500+00:00,1.5125e-05,0xE9,,,,,0xE9,0xE9,0xE9,0xE9,0xE9,0xE9,,0xE9
SPI,result,2024-02-20T06:57:09.593656500+00:00,1.5125e-05,0xD8,,,,,0xD8,0xD8,0xD8,0xD8,0xD8,0xD8,,0xD8
SPI,result,2024-02-20T06:57:09.593672500+00:00,1.5125e-05,0xA0,,,,,0xA0,0xA0,0xA0,0xA0,0xA0,0xA0,,0xA0
SPI,result,2024-02-20T06:57:09.593688500+00:00,1.5125e-05,0x0C,,,,,0x0C,0x0C,0x0C,0x0C,0x0C,0x0C,,0x0C
SPI,result,2024-02-20T06:57:09.593704500+00:00,1.5125e-05,0xEB,,,,,0xEB,0xEB,0xEB,0xEB,0xEB,0xEB,,0xEB
SPI,result,2024-02-20T06:57:09.593720500+00:00,1.5125e-05,0xD8,,,,,0xD8,0xD8,0xD8,0xD8,0xD8,0xD8,,0xD8
SPI,result,2024-02-20T06:57:09.593736500+00:00,1.5125e-05,0xA0,,,,,0xA0,0xA0,0xA0,0xA0,0xA0,0xA0,,0xA0
SPI,result,2024-02-20T06:57:09.593752500+00:00,1.5125e-05,0x0E,,,,,0x0E,0x0E,0x0E,0x0E,0x0E,0x0E,,0x0E
SPI,result,2024-02-20T06:57:09.593768500+00:00,1.5125e-05,0xED,,,,,0xED,0xED,0xED,0xED,0xED,0xED,,0xED
SPI,result,2024-02-20T06:57:09.593784500+00:00,1.5125e-05,0xD8,,,,,0xD8,0xD8,0xD8,0xD8,0xD8,0xD8,,0xD8
SPI,result,2024-02-20T06:57:09.593800500+00:00,1.5125e-05,0xA0,,,,,0xA0,0xA0,0xA0,0xA0,0xA0,0xA0,,0xA0
SPI,result,2024-02-20T06:57:09.593816500+00:00,1.5125e-05,0x10,,,,,0x10,0x10,0x10,0x10,0x10,0x10,,0x10
SPI,result,2024-02-20T06:57:09.593832500+00:00,1.5125e-05,0xEF,,,,,0xEF,0xEF,0xEF,0xEF,0xEF,0xEF,,0xEF
SPI,result,2024-02-20T06:57:09.593848500+00:00,1.5125e-05,0xD8,,,,,0xD8,0xD8,0xD8,0xD8,0xD8,0xD8,,0xD8
SPI,result,2024-02-20T06:57:09.593864500+00:00,1.5125e-05,0xA0,,,,,0xA0,0xA0,0xA0,0xA0,0xA0,0xA0,,0xA0
SPI,disable,2024-02-20T06:57:09.593881500+00:00,1.25e-07,,,,,,,,,,,,,
SPI,enable,2024-02-20T06:57:09.593915125+00:00,1.25e-07,,,,,,,,,,,,,
SPI,result,2024-02-20T06:57:09.593916125+00:00,1.5125e-05,0xE6,,,,,0xE6,0xE6,0xE6,0xE6,0xE6,0xE6,,0xE6
SPI,result,2024-02-20T06:57:09.593948875+00:00,1.5125e-05,0x00,,,,,0x00,0x00,0x00,0x00,0x00,0x00,,0x00
SPI,result,2024-02-20T06:57:09.593964875+00:00,1.525e-05,0x00,,,,,0x00,0x00,0x00,0x00,0x00,0x00,,0x00
SPI,result,2024-02-20T06:57:09.593981000+00:00,1.5125e-05,0x11,,,,,0x11,0x11,0x11,0x11,0x11,0x11,,0x11
SPI,result,2024-02-20T06:57:09.593997000+00:00,1.5125e-05,0x11,,,,,0x11,0x11,0x11,0x11,0x11,0x11,,0x11
SPI,disable,2024-02-20T06:57:09.594014000+00:00,1.25e-07,,,,,,,,,,,,,
SPI,enable,2024-02-20T06:57:09.594046500+00:00,1.25e-07,,,,,,,,,,,,,
SPI,result,2024-02-20T06:57:09.594047500+00:00,1.5125e-05,0xE7,,,,,0xE7,0xE7,0xE7,0xE7,0xE7,0xE7,,0xE7
SPI,result,2024-02-20T06:57:09.594080375+00:00,1.5125e-05,0x44,,,,,0x44,0x44,0x44,0x44,0x44,0x44,,0x44
SPI,result,2024-02-20T06:57:09.594096375+00:00,1.5125e-05,0x44,,,,,0x44,0x44,0x44,0x44,0x44,0x44,,0x44
SPI,disable,2024-02-20T06:57:09.594113375+00:00,1.25e-07,,,,,,,,,,,,,
SPI,enable,2024-02-20T06:57:09.594146875+00:00,1.25e-07,,,,,,,,,,,,,
SPI,result,2024-02-20T06:57:09.594147875+00:00,1.5125e-05,0xE8,,,,,0xE8,0xE8,0xE8,0xE8,0xE8,0xE8,,0xE8
SPI,result,2024-02-20T06:57:09.594181125+00:00,1.5125e-05,0x09,,,,,0x09,0x09,0x09,0x09,0x09,0x09,,0x09
SPI,result,2024-02-20T06:57:09.594197125+00:00,1.5125e-05,0xE8,,,,,0xE8,0xE8,0xE8,0xE8,0xE8,0xE8,,0xE8
SPI,result,2024-02-20T06:57:09.594213125+00:00,1.5125e-05,0xD8,,,,,0xD8,0xD8,0xD8,0xD8,0xD8,0xD8,,0xD8
SPI,result,2024-02-20T06:57:09.594229125+00:00,1.5125e-05,0xA0,,,,,0xA0,0xA0,0xA0,0xA0,0xA0,0xA0,,0xA0
SPI,result,2024-02-20T06:57:09.594245125+00:00,1.5125e-05,0x0B,,,,,0x0B,0x0B,0x0B,0x0B,0x0B,0x0B,,0x0B
