name,type,start_time,duration,"mosi","miso"
"SPI","error",1.13941088,0.018548375,,
"SPI","enable",1.157993,1.25e-07,,
"SPI","result",1.15802438,3.65e-05,0x01,0x00
"SPI","disable",1.158073,1.25e-07,,
"SPI","enable",1.2749015,1.25e-07,,
"SPI","result",1.27490663,3.3375e-05,0xFF,0x00
"SPI","disable",1.274946,1.25e-07,,
"SPI","enable",1.2749515,1.25e-07,,
"SPI","result",1.27495662,3.3375e-05,0x77,0x00
"SPI","disable",1.274996,1.25e-07,,
"SPI","enable",1.2749985,1.25e-07,,
"SPI","result",1.27500363,3.3375e-05,0x01,0x00
"SPI","disable",1.275043,1.25e-07,,
"SPI","enable",1.2750455,1.25e-07,,
"SPI","result",1.27505062,3.325e-05,0x00,0x00
"SPI","disable",1.27509,1.25e-07,,
"SPI","enable",1.2750925,1.25e-07,,
"SPI","result",1.27509762,3.325e-05,0x00,0x00
"SPI","disable",1.275137,1.25e-07,,
"SPI","enable",1.27513937,1.25e-07,,
"SPI","result",1.27514463,3.325e-05,0x00,0x00
"SPI","disable",1.27518387,1.25e-07,,
"SPI","enable",1.27518775,1.25e-07,,
"SPI","result",1.27519287,3.3375e-05,0x36,0x00
"SPI","disable",1.27523225,1.25e-07,,
"SPI","enable",1.27523488,1.25e-07,,
"SPI","result",1.27524,3.325e-05,0x08,0x00
"SPI","disable",1.27527937,1.25e-07,,
"SPI","enable",1.27528338,1.25e-07,,
"SPI","result",1.2752885,3.3375e-05,0x3A,0x00
"SPI","disable",1.27532788,1.25e-07,,
"SPI","enable",1.27533038,1.25e-07,,
"SPI","result",1.27533563,3.325e-05,0x50,0x00
"SPI","disable",1.27537488,1.25e-07,,
"SPI","enable",1.27538975,1.25e-07,,
"SPI","result",1.27539487,3.3375e-05,0xFF,0x00
"SPI","disable",1.27543425,1.25e-07,,
"SPI","enable",1.27543675,1.25e-07,,
"SPI","result",1.275442,3.325e-05,0x77,0x00
"SPI","disable",1.27548125,1.25e-07,,
"SPI","enable",1.27548375,1.25e-07,,
"SPI","result",1.27548887,3.3375e-05,0x01,0x00
"SPI","disable",1.27552825,1.25e-07,,
"SPI","enable",1.27553075,1.25e-07,,
"SPI","result",1.27553588,3.3375e-05,0x00,0x00
"SPI","disable",1.27557525,1.25e-07,,
"SPI","enable",1.27557775,1.25e-07,,
"SPI","result",1.27558288,3.3375e-05,0x00,0x00
"SPI","disable",1.27562225,1.25e-07,,
"SPI","enable",1.27562475,1.25e-07,,
"SPI","result",1.27562987,3.325e-05,0x10,0x00
"SPI","disable",1.27566925,1.25e-07,,
"SPI","enable",1.275682,1.25e-07,,
"SPI","result",1.27568712,3.3375e-05,0xC0,0x00
"SPI","disable",1.2757265,1.25e-07,,
"SPI","enable",1.27572913,1.25e-07,,
"SPI","result",1.27573425,3.325e-05,0x3B,0x00
"SPI","disable",1.27577363,1.25e-07,,
"SPI","enable",1.275776,1.25e-07,,
"SPI","result",1.27578125,3.325e-05,0x00,0x00
"SPI","disable",1.2758205,1.25e-07,,
"SPI","enable",1.27583337,1.25e-07,,
"SPI","result",1.2758385,3.3375e-05,0xC1,0x00
"SPI","disable",1.27587787,1.25e-07,,
"SPI","enable",1.27588038,1.25e-07,,
"SPI","result",1.2758855,3.3375e-05,0x0D,0x00
"SPI","disable",1.27592488,1.25e-07,,
"SPI","enable",1.27592737,1.25e-07,,
"SPI","result",1.2759325,3.3375e-05,0x02,0x00
"SPI","disable",1.27597187,1.25e-07,,
"SPI","enable",1.27598388,1.25e-07,,
"SPI","result",1.275989,3.3375e-05,0xC2,0x00
"SPI","disable",1.27602838,1.25e-07,,
"SPI","enable",1.27603088,1.25e-07,,
"SPI","result",1.276036,3.3375e-05,0x31,0x00
"SPI","disable",1.27607538,1.25e-07,,
"SPI","enable",1.27607787,1.25e-07,,
"SPI","result",1.276083,3.3375e-05,0x05,0x00
"SPI","disable",1.27612237,1.25e-07,,
"SPI","enable",1.27613525,1.25e-07,,
"SPI","result",1.27614037,3.325e-05,0xCD,0x00
"SPI","disable",1.27617975,1.25e-07,,
"SPI","enable",1.27618225,1.25e-07,,
"SPI","result",1.27618737,3.3375e-05,0x00,0x00
"SPI","disable",1.27622675,1.25e-07,,
"SPI","enable",1.27623875,1.25e-07,,
"SPI","result",1.27624388,3.325e-05,0xB0,0x00
"SPI","disable",1.27628325,1.25e-07,,
"SPI","enable",1.27628575,1.25e-07,,
"SPI","result",1.27629087,3.3375e-05,0x00,0x00
"SPI","disable",1.27633025,1.25e-07,,
"SPI","enable",1.27633275,1.25e-07,,
"SPI","result",1.27633788,3.3375e-05,0x11,0x00
"SPI","disable",1.27637725,1.25e-07,,
"SPI","enable",1.27637975,1.25e-07,,
"SPI","result",1.27638487,3.3375e-05,0x18,0x00
"SPI","disable",1.27642425,1.25e-07,,
"SPI","enable",1.27642675,1.25e-07,,
"SPI","result",1.27643188,3.325e-05,0x0E,0x00
"SPI","disable",1.27647125,1.25e-07,,
"SPI","enable",1.27647375,1.25e-07,,
"SPI","result",1.27647888,3.325e-05,0x11,0x00
"SPI","disable",1.27651825,1.25e-07,,
"SPI","enable",1.27652063,1.25e-07,,
"SPI","result",1.27652587,3.325e-05,0x06,0x00
"SPI","disable",1.27656513,1.25e-07,,
"SPI","enable",1.27656762,1.25e-07,,
"SPI","result",1.27657275,3.3375e-05,0x07,0x00
"SPI","disable",1.27661212,1.25e-07,,
"SPI","enable",1.27661462,1.25e-07,,
"SPI","result",1.27661975,3.3375e-05,0x08,0x00
"SPI","disable",1.27665912,1.25e-07,,
"SPI","enable",1.27666163,1.25e-07,,
"SPI","result",1.27666675,3.3375e-05,0x07,0x00
"SPI","disable",1.27670613,1.25e-07,,
"SPI","enable",1.27670862,1.25e-07,,
"SPI","result",1.27671375,3.325e-05,0x22,0x00
"SPI","disable",1.27675312,1.25e-07,,
"SPI","enable",1.27675563,1.25e-07,,
"SPI","result",1.27676075,3.325e-05,0x04,0x00
"SPI","disable",1.27680013,1.25e-07,,
"SPI","enable",1.2768025,1.25e-07,,
"SPI","result",1.27680775,3.325e-05,0x12,0x00
"SPI","disable",1.276847,1.25e-07,,
"SPI","enable",1.2768495,1.25e-07,,
"SPI","result",1.27685462,3.3375e-05,0x0F,0x00
"SPI","disable",1.276894,1.25e-07,,
"SPI","enable",1.2768965,1.25e-07,,
"SPI","result",1.27690163,3.3375e-05,0xAA,0x00
"SPI","disable",1.276941,1.25e-07,,
"SPI","enable",1.2769435,1.25e-07,,
"SPI","result",1.27694862,3.3375e-05,0x31,0x00
"SPI","disable",1.276988,1.25e-07,,
"SPI","enable",1.2769905,1.25e-07,,
"SPI","result",1.27699563,3.3375e-05,0x18,0x00
"SPI","disable",1.277035,1.25e-07,,
"SPI","enable",1.27704775,1.25e-07,,
"SPI","result",1.27705288,3.3375e-05,0xB1,0x00
"SPI","disable",1.27709225,1.25e-07,,
"SPI","enable",1.27709487,1.25e-07,,
"SPI","result",1.2771,3.3375e-05,0x00,0x00
"SPI","disable",1.27713937,1.25e-07,,
"SPI","enable",1.27714188,1.25e-07,,
"SPI","result",1.277147,3.325e-05,0x11,0x00
"SPI","disable",1.27718638,1.25e-07,,
"SPI","enable",1.27718875,1.25e-07,,
"SPI","result",1.277194,3.325e-05,0x19,0x00
"SPI","disable",1.27723338,1.25e-07,,
"SPI","enable",1.27723575,1.25e-07,,
"SPI","result",1.277241,3.325e-05,0x0E,0x00
"SPI","disable",1.27728025,1.25e-07,,
"SPI","enable",1.27728275,1.25e-07,,
"SPI","result",1.27728788,3.3375e-05,0x12,0x00
"SPI","disable",1.27732725,1.25e-07,,
"SPI","enable",1.27732975,1.25e-07,,
"SPI","result",1.27733487,3.3375e-05,0x07,0x00
"SPI","disable",1.27737425,1.25e-07,,
"SPI","enable",1.27737675,1.25e-07,,
"SPI","result",1.27738188,3.3375e-05,0x08,0x00
"SPI","disable",1.27742125,1.25e-07,,
"SPI","enable",1.27742375,1.25e-07,,
"SPI","result",1.27742888,3.325e-05,0x08,0x00
"SPI","disable",1.27746825,1.25e-07,,
"SPI","enable",1.27747075,1.25e-07,,
"SPI","result",1.27747587,3.325e-05,0x08,0x00
"SPI","disable",1.27751525,1.25e-07,,
"SPI","enable",1.27751762,1.25e-07,,
"SPI","result",1.27752288,3.325e-05,0x22,0x00
"SPI","disable",1.27756212,1.25e-07,,
"SPI","enable",1.27756462,1.25e-07,,
"SPI","result",1.27756975,3.3375e-05,0x04,0x00
"SPI","disable",1.27760912,1.25e-07,,
"SPI","enable",1.27761163,1.25e-07,,
"SPI","result",1.27761675,3.3375e-05,0x11,0x00
"SPI","disable",1.27765613,1.25e-07,,
"SPI","enable",1.27765862,1.25e-07,,
"SPI","result",1.27766375,3.3375e-05,0x11,0x00
"SPI","disable",1.27770312,1.25e-07,,
"SPI","enable",1.27770563,1.25e-07,,
"SPI","result",1.27771075,3.325e-05,0xA9,0x00
"SPI","disable",1.27775013,1.25e-07,,
"SPI","enable",1.27775262,1.25e-07,,
"SPI","result",1.27775775,3.325e-05,0x32,0x00
"SPI","disable",1.27779712,1.25e-07,,
"SPI","enable",1.2777995,1.25e-07,,
"SPI","result",1.27780475,3.325e-05,0x18,0x00
"SPI","disable",1.277844,1.25e-07,,
"SPI","enable",1.277856,1.25e-07,,
"SPI","result",1.27786113,3.3375e-05,0xFF,0x00
"SPI","disable",1.2779005,1.25e-07,,
"SPI","enable",1.27790312,1.25e-07,,
"SPI","result",1.27790825,3.325e-05,0x77,0x00
"SPI","disable",1.27794762,1.25e-07,,
"SPI","enable",1.27795,1.25e-07,,
"SPI","result",1.27795525,3.325e-05,0x01,0x00
"SPI","disable",1.2779945,1.25e-07,,
"SPI","enable",1.277997,1.25e-07,,
"SPI","result",1.27800212,3.3375e-05,0x00,0x00
"SPI","disable",1.2780415,1.25e-07,,
"SPI","enable",1.278044,1.25e-07,,
"SPI","result",1.27804912,3.3375e-05,0x00,0x00
"SPI","disable",1.2780885,1.25e-07,,
"SPI","enable",1.278091,1.25e-07,,
"SPI","result",1.27809613,3.3375e-05,0x11,0x00
"SPI","disable",1.2781355,1.25e-07,,
"SPI","enable",1.27814825,1.25e-07,,
"SPI","result",1.2781535,3.325e-05,0xB0,0x00
"SPI","disable",1.27819275,1.25e-07,,
"SPI","enable",1.27819537,1.25e-07,,
"SPI","result",1.2782005,3.3375e-05,0x60,0x00
"SPI","disable",1.27823987,1.25e-07,,
"SPI","enable",1.27825175,1.25e-07,,
"SPI","result",1.278257,3.325e-05,0xB1,0x00
"SPI","disable",1.27829625,1.25e-07,,
"SPI","enable",1.27829887,1.25e-07,,
"SPI","result",1.278304,3.3375e-05,0x32,0x00
"SPI","disable",1.27834337,1.25e-07,,
"SPI","enable",1.27835612,1.25e-07,,
"SPI","result",1.27836138,3.325e-05,0xB2,0x00
"SPI","disable",1.27840062,1.25e-07,,
"SPI","enable",1.27840325,1.25e-07,,
"SPI","result",1.27840837,3.325e-05,0x07,0x00
"SPI","disable",1.27844775,1.25e-07,,
"SPI","enable",1.27845962,1.25e-07,,
"SPI","result",1.27846488,3.325e-05,0xB3,0x00
"SPI","disable",1.27850412,1.25e-07,,
"SPI","enable",1.27850675,1.25e-07,,
"SPI","result",1.27851187,3.3375e-05,0x80,0x00
"SPI","disable",1.27855125,1.25e-07,,
"SPI","enable",1.278564,1.25e-07,,
"SPI","result",1.27856925,3.325e-05,0xB5,0x00
"SPI","disable",1.2786085,1.25e-07,,
"SPI","enable",1.27861113,1.25e-07,,
"SPI","result",1.27861625,3.325e-05,0x49,0x00
"SPI","disable",1.27865563,1.25e-07,,
"SPI","enable",1.2786675,1.25e-07,,
"SPI","result",1.27867275,3.325e-05,0xB7,0x00
"SPI","disable",1.278712,1.25e-07,,
"SPI","enable",1.27871463,1.25e-07,,
"SPI","result",1.27871975,3.3375e-05,0x85,0x00
"SPI","disable",1.27875913,1.25e-07,,
"SPI","enable",1.27877187,1.25e-07,,
"SPI","result",1.27877712,3.325e-05,0xB8,0x00
"SPI","disable",1.27881637,1.25e-07,,
"SPI","enable",1.278819,1.25e-07,,
"SPI","result",1.27882413,3.325e-05,0x21,0x00
"SPI","disable",1.2788635,1.25e-07,,
"SPI","enable",1.27887537,1.25e-07,,
"SPI","result",1.27888062,3.325e-05,0xC1,0x00
"SPI","disable",1.27891987,1.25e-07,,
"SPI","enable",1.2789225,1.25e-07,,
"SPI","result",1.27892762,3.3375e-05,0x78,0x00
"SPI","disable",1.278967,1.25e-07,,
"SPI","enable",1.27897975,1.25e-07,,
"SPI","result",1.27898487,3.3375e-05,0xC2,0x00
"SPI","disable",1.27902425,1.25e-07,,
"SPI","enable",1.27902688,1.25e-07,,
"SPI","result",1.279032,3.325e-05,0x78,0x00
"SPI","disable",1.27907138,1.25e-07,,
"SPI","enable",1.27908325,1.25e-07,,
"SPI","result",1.2790885,3.325e-05,0xE0,0x00
"SPI","disable",1.27912775,1.25e-07,,
"SPI","enable",1.27913038,1.25e-07,,
"SPI","result",1.2791355,3.3375e-05,0x00,0x00
"SPI","disable",1.27917488,1.25e-07,,
"SPI","enable",1.27917737,1.25e-07,,
"SPI","result",1.2791825,3.325e-05,0x1B,0x00
"SPI","disable",1.27922187,1.25e-07,,
"SPI","enable",1.27922438,1.25e-07,,
"SPI","result",1.2792295,3.325e-05,0x02,0x00
"SPI","disable",1.27926888,1.25e-07,,
"SPI","enable",1.27928163,1.25e-07,,
"SPI","result",1.27928675,3.3375e-05,0xE1,0x00
"SPI","disable",1.27932613,1.25e-07,,
"SPI","enable",1.27932862,1.25e-07,,
"SPI","result",1.27933388,3.325e-05,0x08,0x00
"SPI","disable",1.27937325,1.25e-07,,
"SPI","enable",1.27937562,1.25e-07,,
"SPI","result",1.27938087,3.325e-05,0xA0,0x00
"SPI","disable",1.27942012,1.25e-07,,
"SPI","enable",1.27942263,1.25e-07,,
"SPI","result",1.27942775,3.3375e-05,0x00,0x00
"SPI","disable",1.27946713,1.25e-07,,
"SPI","enable",1.27946962,1.25e-07,,
"SPI","result",1.27947475,3.3375e-05,0x00,0x00
"SPI","disable",1.27951412,1.25e-07,,
"SPI","enable",1.27951663,1.25e-07,,
"SPI","result",1.27952175,3.3375e-05,0x07,0x00
"SPI","disable",1.27956113,1.25e-07,,
"SPI","enable",1.27956362,1.25e-07,,
"SPI","result",1.27956875,3.325e-05,0xA0,0x00
"SPI","disable",1.27960812,1.25e-07,,
"SPI","enable",1.27961062,1.25e-07,,
"SPI","result",1.27961575,3.325e-05,0x00,0x00
"SPI","disable",1.27965512,1.25e-07,,
"SPI","enable",1.2796575,1.25e-07,,
"SPI","result",1.27966275,3.325e-05,0x00,0x00
"SPI","disable",1.279702,1.25e-07,,
"SPI","enable",1.2797045,1.25e-07,,
"SPI","result",1.27970962,3.3375e-05,0x00,0x00
"SPI","disable",1.279749,1.25e-07,,
"SPI","enable",1.2797515,1.25e-07,,
"SPI","result",1.27975663,3.3375e-05,0x44,0x00
"SPI","disable",1.279796,1.25e-07,,
"SPI","enable",1.2797985,1.25e-07,,
"SPI","result",1.27980363,3.3375e-05,0x44,0x00
"SPI","disable",1.279843,1.25e-07,,
"SPI","enable",1.279855,1.25e-07,,
"SPI","result",1.27986012,3.325e-05,0xE2,0x00
"SPI","disable",1.27989963,1.25e-07,,
"SPI","enable",1.27990225,1.25e-07,,
"SPI","result",1.2799075,3.325e-05,0x11,0x00
"SPI","disable",1.27994675,1.25e-07,,
"SPI","enable",1.27994925,1.25e-07,,
"SPI","result",1.27995437,3.3375e-05,0x11,0x00
"SPI","disable",1.27999375,1.25e-07,,
"SPI","enable",1.27999625,1.25e-07,,
"SPI","result",1.28000138,3.3375e-05,0x44,0x00
"SPI","disable",1.28004075,1.25e-07,,
"SPI","enable",1.28004325,1.25e-07,,
"SPI","result",1.28004838,3.3375e-05,0x44,0x00
"SPI","disable",1.28008775,1.25e-07,,
"SPI","enable",1.28009025,1.25e-07,,
"SPI","result",1.28009537,3.3375e-05,0xED,0x00
"SPI","disable",1.28013475,1.25e-07,,
"SPI","enable",1.28013725,1.25e-07,,
"SPI","result",1.28014238,3.325e-05,0xA0,0x00
"SPI","disable",1.28018175,1.25e-07,,
"SPI","enable",1.28018412,1.25e-07,,
"SPI","result",1.28018937,3.325e-05,0x00,0x00
"SPI","disable",1.28022875,1.25e-07,,
"SPI","enable",1.28023113,1.25e-07,,
"SPI","result",1.28023638,3.325e-05,0x00,0x00
"SPI","disable",1.28027563,1.25e-07,,
"SPI","enable",1.28027813,1.25e-07,,
"SPI","result",1.28028325,3.3375e-05,0xEC,0x00
"SPI","disable",1.28032262,1.25e-07,,
"SPI","enable",1.28032513,1.25e-07,,
"SPI","result",1.28033025,3.3375e-05,0xA0,0x00
"SPI","disable",1.28036963,1.25e-07,,
"SPI","enable",1.28037212,1.25e-07,,
"SPI","result",1.28037725,3.3375e-05,0x00,0x00
"SPI","disable",1.28041662,1.25e-07,,
"SPI","enable",1.28041913,1.25e-07,,
"SPI","result",1.28042425,3.325e-05,0x00,0x00
"SPI","disable",1.28046363,1.25e-07,,
"SPI","enable",1.28047638,1.25e-07,,
"SPI","result",1.2804815,3.3375e-05,0xE3,0x00
"SPI","disable",1.28052087,1.25e-07,,
"SPI","enable",1.2805235,1.25e-07,,
"SPI","result",1.28052863,3.325e-05,0x00,0x00
"SPI","disable",1.280568,1.25e-07,,
"SPI","enable",1.28057037,1.25e-07,,
"SPI","result",1.28057562,3.325e-05,0x00,0x00
"SPI","disable",1.28061487,1.25e-07,,
"SPI","enable",1.28061738,1.25e-07,,
"SPI","result",1.2806225,3.3375e-05,0x11,0x00
"SPI","disable",1.28066188,1.25e-07,,
"SPI","enable",1.28066437,1.25e-07,,
"SPI","result",1.2806695,3.3375e-05,0x11,0x00
"SPI","disable",1.28070887,1.25e-07,,
"SPI","enable",1.28072087,1.25e-07,,
"SPI","result",1.280726,3.325e-05,0xE4,0x00
"SPI","disable",1.28076538,1.25e-07,,
"SPI","enable",1.28076788,1.25e-07,,
"SPI","result",1.280773,3.3375e-05,0x44,0x00
"SPI","disable",1.28081238,1.25e-07,,
"SPI","enable",1.28081487,1.25e-07,,
"SPI","result",1.28082,3.3375e-05,0x44,0x00
"SPI","disable",1.28085937,1.25e-07,,
"SPI","enable",1.28087212,1.25e-07,,
"SPI","result",1.28087737,3.325e-05,0xE5,0x00
"SPI","disable",1.28091675,1.25e-07,,
"SPI","enable",1.28091925,1.25e-07,,
"SPI","result",1.28092437,3.3375e-05,0x0A,0x00
"SPI","disable",1.28096375,1.25e-07,,
"SPI","enable",1.28096625,1.25e-07,,
"SPI","result",1.28097138,3.3375e-05,0xE9,0x00
"SPI","disable",1.28101075,1.25e-07,,
"SPI","enable",1.28101325,1.25e-07,,
"SPI","result",1.28101837,3.325e-05,0xD8,0x00
"SPI","disable",1.28105775,1.25e-07,,
"SPI","enable",1.28106025,1.25e-07,,
"SPI","result",1.28106538,3.325e-05,0xA0,0x00
"SPI","disable",1.28110475,1.25e-07,,
"SPI","enable",1.28110712,1.25e-07,,
"SPI","result",1.28111237,3.325e-05,0x0C,0x00
"SPI","disable",1.28115162,1.25e-07,,
"SPI","enable",1.28115413,1.25e-07,,
"SPI","result",1.28115925,3.3375e-05,0xEB,0x00
"SPI","disable",1.28119863,1.25e-07,,
"SPI","enable",1.28120112,1.25e-07,,
"SPI","result",1.28120625,3.3375e-05,0xD8,0x00
"SPI","disable",1.28124562,1.25e-07,,
"SPI","enable",1.28124813,1.25e-07,,
"SPI","result",1.28125325,3.3375e-05,0xA0,0x00
"SPI","disable",1.28129263,1.25e-07,,
"SPI","enable",1.28129512,1.25e-07,,
"SPI","result",1.28130025,3.3375e-05,0x0E,0x00
"SPI","disable",1.28133962,1.25e-07,,
"SPI","enable",1.28134213,1.25e-07,,
"SPI","result",1.28134725,3.325e-05,0xED,0x00
"SPI","disable",1.28138662,1.25e-07,,
"SPI","enable",1.281389,1.25e-07,,
"SPI","result",1.28139425,3.325e-05,0xD8,0x00
"SPI","disable",1.28143363,1.25e-07,,
"SPI","enable",1.281436,1.25e-07,,
"SPI","result",1.28144125,3.325e-05,0xA0,0x00
"SPI","disable",1.2814805,1.25e-07,,
"SPI","enable",1.281483,1.25e-07,,
"SPI","result",1.28148813,3.3375e-05,0x10,0x00
"SPI","disable",1.2815275,1.25e-07,,
"SPI","enable",1.28153,1.25e-07,,
"SPI","result",1.28153512,3.3375e-05,0xEF,0x00
"SPI","disable",1.2815745,1.25e-07,,
"SPI","enable",1.281577,1.25e-07,,
"SPI","result",1.28158212,3.3375e-05,0xD8,0x00
"SPI","disable",1.2816215,1.25e-07,,
"SPI","enable",1.281624,1.25e-07,,
"SPI","result",1.28162913,3.325e-05,0xA0,0x00
"SPI","disable",1.2816685,1.25e-07,,
"SPI","enable",1.28168038,1.25e-07,,
"SPI","result",1.28168562,3.325e-05,0xE6,0x00
"SPI","disable",1.28172488,1.25e-07,,
"SPI","enable",1.2817275,1.25e-07,,
"SPI","result",1.28173263,3.3375e-05,0x00,0x00
"SPI","disable",1.281772,1.25e-07,,
"SPI","enable",1.2817745,1.25e-07,,
"SPI","result",1.28177962,3.325e-05,0x00,0x00
"SPI","disable",1.281819,1.25e-07,,
"SPI","enable",1.28182138,1.25e-07,,
"SPI","result",1.28182663,3.325e-05,0x11,0x00
"SPI","disable",1.28186588,1.25e-07,,
"SPI","enable",1.28186837,1.25e-07,,
"SPI","result",1.28187363,3.325e-05,0x11,0x00
"SPI","disable",1.28191287,1.25e-07,,
"SPI","enable",1.28192575,1.25e-07,,
"SPI","result",1.28193088,3.325e-05,0xE7,0x00
"SPI","disable",1.28197025,1.25e-07,,
"SPI","enable",1.28197275,1.25e-07,,
"SPI","result",1.28197787,3.3375e-05,0x44,0x00
"SPI","disable",1.28201725,1.25e-07,,
"SPI","enable",1.28201975,1.25e-07,,
"SPI","result",1.28202488,3.3375e-05,0x44,0x00
"SPI","disable",1.28206425,1.25e-07,,
"SPI","enable",1.28207625,1.25e-07,,
"SPI","result",1.28208137,3.325e-05,0xE8,0x00
"SPI","disable",1.28212075,1.25e-07,,
"SPI","enable",1.28212325,1.25e-07,,
"SPI","result",1.28212838,3.3375e-05,0x09,0x00
"SPI","disable",1.28216775,1.25e-07,,
"SPI","enable",1.28217025,1.25e-07,,
"SPI","result",1.28217538,3.3375e-05,0xE8,0x00
"SPI","disable",1.28221475,1.25e-07,,
"SPI","enable",1.28221725,1.25e-07,,
"SPI","result",1.28222237,3.3375e-05,0xD8,0x00
"SPI","disable",1.28226175,1.25e-07,,
"SPI","enable",1.28226425,1.25e-07,,
"SPI","result",1.28226938,3.325e-05,0xA0,0x00
"SPI","disable",1.28230875,1.25e-07,,
"SPI","enable",1.28231125,1.25e-07,,
"SPI","result",1.28231637,3.325e-05,0x0B,0x00
"SPI","disable",1.28235575,1.25e-07,,
"SPI","enable",1.28235813,1.25e-07,,
"SPI","result",1.28236338,3.325e-05,0xEA,0x00
"SPI","disable",1.28240263,1.25e-07,,
"SPI","enable",1.28240512,1.25e-07,,
"SPI","result",1.28241025,3.3375e-05,0xD8,0x00
"SPI","disable",1.28244962,1.25e-07,,
"SPI","enable",1.28245213,1.25e-07,,
"SPI","result",1.28245725,3.3375e-05,0xA0,0x00
"SPI","disable",1.28249663,1.25e-07,,
"SPI","enable",1.28249912,1.25e-07,,
"SPI","result",1.28250425,3.3375e-05,0x0D,0x00
"SPI","disable",1.28254362,1.25e-07,,
"SPI","enable",1.28254613,1.25e-07,,
"SPI","result",1.28255125,3.3375e-05,0xEC,0x00
"SPI","disable",1.28259063,1.25e-07,,
"SPI","enable",1.28259313,1.25e-07,,
"SPI","result",1.28259825,3.325e-05,0xD8,0x00
"SPI","disable",1.28263763,1.25e-07,,
"SPI","enable",1.28264,1.25e-07,,
"SPI","result",1.28264525,3.325e-05,0xA0,0x00
"SPI","disable",1.28268462,1.25e-07,,
"SPI","enable",1.282687,1.25e-07,,
"SPI","result",1.28269225,3.325e-05,0x0F,0x00
"SPI","disable",1.2827315,1.25e-07,,
"SPI","enable",1.282734,1.25e-07,,
"SPI","result",1.28273912,3.3375e-05,0xEE,0x00
"SPI","disable",1.2827785,1.25e-07,,
"SPI","enable",1.282781,1.25e-07,,
"SPI","result",1.28278613,3.3375e-05,0xD8,0x00
"SPI","disable",1.2828255,1.25e-07,,
"SPI","enable",1.282828,1.25e-07,,
"SPI","result",1.28283313,3.3375e-05,0xA0,0x00
"SPI","disable",1.2828725,1.25e-07,,
"SPI","enable",1.28288525,1.25e-07,,
"SPI","result",1.2828905,3.325e-05,0xEB,0x00
"SPI","disable",1.28292975,1.25e-07,,
"SPI","enable",1.28293237,1.25e-07,,
"SPI","result",1.2829375,3.3375e-05,0x02,0x00
"SPI","disable",1.28297687,1.25e-07,,
"SPI","enable",1.28297938,1.25e-07,,
"SPI","result",1.2829845,3.325e-05,0x00,0x00
"SPI","disable",1.28302388,1.25e-07,,
"SPI","enable",1.28302625,1.25e-07,,
"SPI","result",1.2830315,3.325e-05,0xE4,0x00
"SPI","disable",1.28307075,1.25e-07,,
"SPI","enable",1.28307325,1.25e-07,,
"SPI","result",1.28307838,3.3375e-05,0xE4,0x00
"SPI","disable",1.28311775,1.25e-07,,
"SPI","enable",1.28312025,1.25e-07,,
"SPI","result",1.28312538,3.3375e-05,0x88,0x00
"SPI","disable",1.28316475,1.25e-07,,
"SPI","enable",1.28316725,1.25e-07,,
"SPI","result",1.28317237,3.3375e-05,0x00,0x00
"SPI","disable",1.28321175,1.25e-07,,
"SPI","enable",1.28321425,1.25e-07,,
"SPI","result",1.28321938,3.3375e-05,0x40,0x00
"SPI","disable",1.28325875,1.25e-07,,
"SPI","enable",1.28327063,1.25e-07,,
"SPI","result",1.28327587,3.325e-05,0xEC,0x00
"SPI","disable",1.28331525,1.25e-07,,
"SPI","enable",1.28331775,1.25e-07,,
"SPI","result",1.28332288,3.3375e-05,0x3C,0x00
"SPI","disable",1.28336225,1.25e-07,,
"SPI","enable",1.28336475,1.25e-07,,
"SPI","result",1.28336987,3.325e-05,0x00,0x00
"SPI","disable",1.28340925,1.25e-07,,
"SPI","enable",1.283422,1.25e-07,,
"SPI","result",1.28342713,3.3375e-05,0xED,0x00
"SPI","disable",1.2834665,1.25e-07,,
"SPI","enable",1.28346913,1.25e-07,,
"SPI","result",1.28347425,3.325e-05,0xAB,0x00
"SPI","disable",1.28351363,1.25e-07,,
"SPI","enable",1.28351613,1.25e-07,,
"SPI","result",1.28352125,3.325e-05,0x89,0x00
"SPI","disable",1.28356063,1.25e-07,,
"SPI","enable",1.283563,1.25e-07,,
"SPI","result",1.28356825,3.325e-05,0x76,0x00
"SPI","disable",1.2836075,1.25e-07,,
"SPI","enable",1.28361,1.25e-07,,
"SPI","result",1.28361513,3.3375e-05,0x54,0x00
"SPI","disable",1.2836545,1.25e-07,,
"SPI","enable",1.283657,1.25e-07,,
"SPI","result",1.28366212,3.3375e-05,0x02,0x00
"SPI","disable",1.2837015,1.25e-07,,
"SPI","enable",1.283704,1.25e-07,,
"SPI","result",1.28370912,3.3375e-05,0xFF,0x00
"SPI","disable",1.2837485,1.25e-07,,
"SPI","enable",1.283751,1.25e-07,,
"SPI","result",1.28375613,3.3375e-05,0xFF,0x00
"SPI","disable",1.2837955,1.25e-07,,
"SPI","enable",1.283798,1.25e-07,,
"SPI","result",1.28380312,3.325e-05,0xFF,0x00
"SPI","disable",1.2838425,1.25e-07,,
"SPI","enable",1.28384487,1.25e-07,,
"SPI","result",1.28385013,3.325e-05,0xFF,0x00
"SPI","disable",1.2838895,1.25e-07,,
"SPI","enable",1.28389187,1.25e-07,,
"SPI","result",1.28389712,3.325e-05,0xFF,0x00
"SPI","disable",1.28393637,1.25e-07,,
"SPI","enable",1.28393888,1.25e-07,,
"SPI","result",1.283944,3.3375e-05,0xFF,0x00
"SPI","disable",1.28398338,1.25e-07,,
"SPI","enable",1.28398587,1.25e-07,,
"SPI","result",1.283991,3.3375e-05,0x20,0x00
"SPI","disable",1.28403037,1.25e-07,,
"SPI","enable",1.28403288,1.25e-07,,
"SPI","result",1.284038,3.3375e-05,0x45,0x00
"SPI","disable",1.28407738,1.25e-07,,
"SPI","enable",1.28407987,1.25e-07,,
"SPI","result",1.284085,3.325e-05,0x67,0x00
"SPI","disable",1.28412437,1.25e-07,,
"SPI","enable",1.28412687,1.25e-07,,
"SPI","result",1.284132,3.325e-05,0x98,0x00
"SPI","disable",1.28417137,1.25e-07,,
"SPI","enable",1.28417375,1.25e-07,,
"SPI","result",1.284179,3.325e-05,0xBA,0x00
"SPI","disable",1.28421825,1.25e-07,,
"SPI","enable",1.28423025,1.25e-07,,
"SPI","result",1.28423537,3.3375e-05,0xFF,0x00
"SPI","disable",1.28427475,1.25e-07,,
"SPI","enable",1.28427725,1.25e-07,,
"SPI","result",1.2842825,3.325e-05,0x77,0x00
"SPI","disable",1.28432188,1.25e-07,,
"SPI","enable",1.28432425,1.25e-07,,
"SPI","result",1.2843295,3.325e-05,0x01,0x00
"SPI","disable",1.28436875,1.25e-07,,
"SPI","enable",1.28437125,1.25e-07,,
"SPI","result",1.28437637,3.3375e-05,0x00,0x00
"SPI","disable",1.28441575,1.25e-07,,
"SPI","enable",1.28441825,1.25e-07,,
"SPI","result",1.28442338,3.3375e-05,0x00,0x00
"SPI","disable",1.28446275,1.25e-07,,
"SPI","enable",1.28446525,1.25e-07,,
"SPI","result",1.28447037,3.3375e-05,0x13,0x00
"SPI","disable",1.28450975,1.25e-07,,
"SPI","enable",1.2845225,1.25e-07,,
"SPI","result",1.28452775,3.325e-05,0xE5,0x00
"SPI","disable",1.284567,1.25e-07,,
"SPI","enable",1.28456963,1.25e-07,,
"SPI","result",1.28457475,3.325e-05,0xE4,0x00
"SPI","disable",1.28461413,1.25e-07,,
"SPI","enable",1.284626,1.25e-07,,
"SPI","result",1.28463125,3.325e-05,0xFF,0x00
"SPI","disable",1.2846705,1.25e-07,,
"SPI","enable",1.28467313,1.25e-07,,
"SPI","result",1.28467825,3.3375e-05,0x77,0x00
"SPI","disable",1.28471763,1.25e-07,,
"SPI","enable",1.28472012,1.25e-07,,
"SPI","result",1.28472525,3.325e-05,0x01,0x00
"SPI","disable",1.28476462,1.25e-07,,
"SPI","enable",1.28476712,1.25e-07,,
"SPI","result",1.28477225,3.325e-05,0x00,0x00
"SPI","disable",1.28481162,1.25e-07,,
"SPI","enable",1.284814,1.25e-07,,
"SPI","result",1.28481925,3.325e-05,0x00,0x00
"SPI","disable",1.2848585,1.25e-07,,
"SPI","enable",1.284861,1.25e-07,,
"SPI","result",1.28486612,4.2375e-05,0x00,0x00
"SPI","disable",1.28491463,1.25e-07,,
"SPI","enable",1.28492775,1.25e-07,,
"SPI","result",1.28493287,3.3375e-05,0x3A,0x00
"SPI","disable",1.28497225,1.25e-07,,
"SPI","enable",1.28497475,1.25e-07,,
"SPI","result",1.28498,3.325e-05,0x60,0x00
"SPI","disable",1.28501925,1.25e-07,,
"SPI","enable",1.28503125,1.25e-07,,
"SPI","result",1.28503638,3.3375e-05,0x11,0x00
"SPI","disable",1.28507575,1.25e-07,,
"SPI","enable",1.404914,1.25e-07,,
"SPI","result",1.40491912,3.3375e-05,0x29,0x00
"SPI","disable",1.4049585,1.25e-07,,
